(1578925462.003550) can0 0CF00400#017D7DAD2A00F47D
(1578925462.004100) can0 18F0000F#007DFFFF0F7DFFFF
(1578925462.006050) can0 0CFF0381#0000000000000007
(1578925462.006850) can0 0CF00A01#500E2725FFFFFFFF
(1578925462.007450) can0 10F01A01#A48EFFFFFFFFFFFF
(1578925462.008050) can0 10FCFD01#FFFFFFFFA62CFFFF
(1578925462.008600) can0 14FEF121#F3FFFF1FFFFFFFFF
(1578925462.009200) can0 18FD9401#C407FFFF4528D801
(1578925462.009800) can0 18FDA101#9A1AFFFFFFFF00FF
(1578925462.010400) can0 10FDA301#FFFFFFFFFFFFFFFF
(1578925462.011000) can0 18FDAA01#FFFFFFFFFFFFFF29
(1578925462.011550) can0 18FFA43D#640070000000FDFF
(1578925462.012150) can0 18FDD001#FFFFFF0028FFFFFF
(1578925462.012750) can0 1CFE9201#FF0071FFFFFFFFFF
(1578925462.013300) can0 18FEDB01#102D102D102DFFFF
(1578925462.013850) can0 0CF00400#017D7DA92A00F47D
(1578925462.014450) can0 18FF3000#0000AFFFFFFFFFFF
(1578925462.018300) can0 18F0233D#FFFFFFFFFF2BFFFF
(1578925462.018850) can0 14FEF131#CFFFFFF300FFFF30
(1578925462.019450) can0 18FD413D#FFFFFFFFFCFCFCFC
(1578925462.020000) can0 18FFA23D#0000D11C2627BE0F
(1578925462.023600) can0 0CF00400#017D7DA52A00F47D
(1578925462.024150) can0 0CF00300#DD0000FFFFFF5FFF
(1578925462.024800) can0 14FFA000#FCFFFFFFFFFFFFFF
(1578925462.025400) can0 18FEF200#00000000F304FFFF
(1578925462.028450) can0 0CF00421#FFFFFFFFFFFFFFFF
(1578925462.029000) can0 18FFA03D#29512F0020001DFF
(1578925462.032050) can0 18F00E3D#A00FFFFFFFFFFFFF
(1578925462.032600) can0 18F00F3D#9010FFFFFFFFFFFF
(1578925462.033700) can0 0CF00400#017D7D9D2A00F47D
(1578925462.034250) can0 18FEDF00#850013FF7D8807FF
(1578925462.036200) can0 0C00000B#FCFFFAFAFFFFFFFF
(1578925462.038350) can0 18FFA13D#230BF51030000001
(1578925462.038900) can0 14FDA421#FFFFFFFFFFFFFFFF
(1578925462.039600) can0 10FF2121#72551FD0D0FFFFE1
(1578925462.043600) can0 0CF00400#017D7D912A00F47D
(1578925462.047800) can0 18EA4A17#E6FE00
(1578925462.048400) can0 18FD0517#03033FFFFFFFFFFF
(1578925462.049000) can0 14FEF031#FFFFFFFFFFFC00FF
(1578925462.049550) can0 18FD0417#C0FFFFFFFFFFFFFF
(1578925462.050150) can0 14FF2321#010CE1FFFFFFFFFF
(1578925462.050700) can0 18FEF717#FFFFFFFF1A01FFFF
(1578925462.051250) can0 18FEFA17#FFDEBFFFFFFFFFFF
(1578925462.051900) can0 18FF1817#000000000000FFFF
(1578925462.052250) can0 18EA4A17#E8FE00
(1578925462.052850) can0 18FF1917#54FFFFFF020000E4
(1578925462.053400) can0 18FEFC17#FF88FFFFFFFFFFFF
(1578925462.053950) can0 0CF00400#017D7D932A00F47D
(1578925462.054550) can0 18FEF117#F3FFFFFFFFFFFFFF
(1578925462.055100) can0 18FECA17#00FF00000000FFFF
(1578925462.055700) can0 18FEC117#36FD8905FFFFFFFF
(1578925462.056250) can0 0CFF0281#45038001D2006100
(1578925462.056800) can0 18FEF000#FFFFFF0000F000FF
(1578925462.057400) can0 0CF00A01#500E1125FFFFFFFF
(1578925462.058000) can0 10F01A01#A88EFFFFFFFFFFFF
(1578925462.059350) can0 14FF0121#FFFFFFFFFFFFFCFF
(1578925462.063600) can0 0CF00400#017D7D8F2A00F47D
(1578925462.064200) can0 18FEE000#35B8380035B83800
(1578925462.068550) can0 18F0233D#FFFFFFFFFF2BFFFF
(1578925462.069500) can0 14FF0221#FFFFFFFFFFFFFFFF
(1578925462.073400) can0 18FEBF0B#444D7D7C6E6EFFFF
(1578925462.073950) can0 0CF00400#017D7D8A2A00F47D
(1578925462.074500) can0 0CF00300#DD0000FFFFFF5FFF
(1578925462.075100) can0 18FEF100#C3364D1000000030
(1578925462.082050) can0 18F00E3D#A00FFFFFFFFFFFFF
(1578925462.082600) can0 18F00F3D#9010FFFFFFFFFFFF
(1578925462.083200) can0 18FD8C3D#19000B00FFFFFFFF
(1578925462.083750) can0 18FDB23D#FFFFCC4F1000FFFF
(1578925462.084350) can0 0CF00400#017D7D892A00F47D
(1578925462.084900) can0 18FDB300#FFFF6753FFFFFFFF
(1578925462.085500) can0 18FE4F3E#0400FFFFFFFFFFFF
(1578925462.086050) can0 18FDB400#C540C540FFFFFFFF
(1578925462.086650) can0 18FEDF00#850013FF7D7D07FF
(1578925462.088550) can0 14F00031#CFFFFFFFFFFFFFFF
(1578925462.089300) can0 18F0010B#C0FFF0FFFF0DFF3F
(1578925462.090500) can0 10FF2121#72551FD0D0FFFFE1
(1578925462.092300) can0 14FF3131#0430030000FFFFF0
(1578925462.093650) can0 0CF00400#017D7D8A2A00F47D
(1578925462.094350) can0 18FF2221#0355CF0733F3FFFF
(1578925462.095200) can0 18FF1919#01030A02FFFFFFFF
(1578925462.098400) can0 14F00131#FFFFFFFF00FFFFFF
(1578925462.100000) can0 18FF1B19#FFFCFFFFFFFFFFFF
(1578925462.103550) can0 0CF00400#017D7D852A00F47D
(1578925462.104150) can0 18F0000F#007DFFFF0F7DFFFF
(1578925462.105850) can0 0CFF0381#0000000000000007
(1578925462.106700) can0 0CF00A01#580E0A25FFFFFFFF
(1578925462.107250) can0 10F01A01#B08EFFFFFFFFFFFF
(1578925462.107850) can0 10FCFD01#FFFFFFFF792CFFFF
(1578925462.108400) can0 18FD9401#C407FFFF3E28D801
(1578925462.109000) can0 14FEF121#F3FFFF1FFFFFFFFF
(1578925462.109550) can0 18FDA101#9A1AFFFFFFFF00FF
(1578925462.110150) can0 10FDA301#FFFFFFFFFFFFFFFF
(1578925462.110700) can0 18FDAA01#FFFFFFFFFFFFFF29
(1578925462.111300) can0 18FDD001#FFFFFF0028FFFFFF
(1578925462.111900) can0 1CFE9201#FF0071FFFFFFFFFF
(1578925462.112500) can0 18FEDB01#102D102D102DFFFF
(1578925462.113650) can0 0CF00400#017D7D782A00F47D
(1578925462.114250) can0 18FF3000#0000AFFFFFFFFFFF
(1578925462.118300) can0 18F0233D#FFFFFFFFFF2BFFFF
(1578925462.118850) can0 14FEF131#CFFFFFF300FFFF30
(1578925462.119450) can0 18FD413D#FFFFFFFFFCFCFCFC
(1578925462.123550) can0 0CF00400#017D7D6A2A00F47D
(1578925462.124150) can0 0CF00300#DD0000FFFFFF5FFF
(1578925462.124750) can0 14FFA000#FCFFFFFFFFFFFFFF
(1578925462.125350) can0 18FEF200#00000000F304FFFF
(1578925462.125750) can0 18EA0090#E5FE00
(1578925462.128550) can0 0CF00421#FFFFFFFFFFFFFFFF
(1578925462.132050) can0 18F00E3D#A00FFFFFFFFFFFFF
(1578925462.132650) can0 18F00F3D#9010FFFFFFFFFFFF
(1578925462.133750) can0 0CF00400#017D7D5B2A00F47D
(1578925462.134300) can0 18FEDF00#850013FF7D7D07FF
(1578925462.134900) can0 18FEE500#8E9F0200ABE60800
(1578925462.136300) can0 0C00000B#FCFFFAFAFFFFFFFF
(1578925462.138400) can0 14FDA421#FFFFFFFFFFFFFFFF
(1578925462.139200) can0 10FF2121#72551FD0D0FFFFE1
(1578925462.143550) can0 0CF00400#017D7D5B2A00F47D
(1578925462.148200) can0 18FEE64A#5C1809013423837E
(1578925462.148800) can0 14FEF031#FFFFFFFFFFFC00FF
(1578925462.149400) can0 18FEF117#F3FFFFFFFFFFFFFF
(1578925462.149950) can0 14FF2321#010CE1FFFFFFFFFF
(1578925462.153550) can0 0CF00400#017D7D572A00F47D
(1578925462.154150) can0 18FEF000#FFFFFF0000F000FF
(1578925462.156050) can0 0CFF0281#45038001D2006100
(1578925462.156700) can0 0CF00A01#5F0EFC24FFFFFFFF
(1578925462.157300) can0 10F01A01#B88EFFFFFFFFFFFF
(1578925462.157850) can0 0C00100B#FCFFFA00FFFFFFFF
(1578925462.159300) can0 14FF0121#FFFFFFFFFFFFFCFF
(1578925462.162850) can0 0C000F0B#FCFFFA00FFFFFFFF
(1578925462.163650) can0 0CF00400#017D7D532A00F47D
(1578925462.164200) can0 18FEE000#35B8380035B83800
(1578925462.168150) can0 0C00290B#FCFFFA00FFFFFFFF
(1578925462.168750) can0 18E8174A#0100FFFFFFE8FE00
(1578925462.169300) can0 14FF0221#FFFFFFFFFFFFFFFF
(1578925462.169900) can0 18F0233D#FFFFFFFFFF2BFFFF
(1578925462.173450) can0 18FEBF0B#0A4D7E7C6E6FFFFF
(1578925462.174000) can0 0CF00400#017D7D4F2A00F47D
(1578925462.174600) can0 0CF00300#DD0000FFFFFF5FFF
(1578925462.175200) can0 18FEF100#C3CC4C1000000030
(1578925462.182050) can0 18F00E3D#A00FFFFFFFFFFFFF
(1578925462.182600) can0 18F00F3D#9010FFFFFFFFFFFF
(1578925462.183200) can0 18FD8C3D#19000B00FFFFFFFF
(1578925462.183800) can0 18FDB23D#FFFFCC4F1000FFFF
(1578925462.184350) can0 0CF00400#017D7D572A00F47D
(1578925462.184900) can0 18FDB300#FFFF6753FFFFFFFF
(1578925462.185500) can0 18FE4F3E#0400FFFFFFFFFFFF
(1578925462.186050) can0 18FDB400#C540C540FFFFFFFF
(1578925462.186650) can0 18FEDF00#850013FF7D7F07FF
(1578925462.187250) can0 18FEEF00#C2FFFF5AFFFFFFFA
(1578925462.188800) can0 14F00031#CFFFFFFFFFFFFFFF
(1578925462.189400) can0 18F0010B#C0FFF0FFFF0DFF3F
(1578925462.190650) can0 10FF2121#72551FD0D0FFFFE1
(1578925462.192400) can0 14FF3131#0430030000FFFFF0
(1578925462.193650) can0 0CF00400#017D7D532A00F47D
(1578925462.198650) can0 14F00131#FFFFFFFF00FFFFFF
(1578925462.203550) can0 0CF00400#017D7D512A00F47D
(1578925462.204150) can0 18F0000F#007DFFFF0F7DFFFF
(1578925462.205850) can0 0CFF0381#0000000000000007
(1578925462.206700) can0 0CF00A01#5F0EE624FFFFFFFF
(1578925462.207300) can0 10F01A01#C48EFFFFFFFFFFFF
(1578925462.207850) can0 10FCFD01#FFFFFFFF3C2CFFFF
(1578925462.208450) can0 18FD9401#C407FFFF4128D801
(1578925462.209000) can0 14FEF121#F3FFFF1FFFFFFFFF
(1578925462.209550) can0 18FDA101#A51AFFFFFFFF00FF
(1578925462.210150) can0 10FF2121#72551FD4D0FFFFE1
(1578925462.210700) can0 10FDA301#FFFFFFFFFFFFFFFF
(1578925462.211300) can0 18FDAA01#FFFFFFFFFFFFFF29
(1578925462.211900) can0 18FDD001#FFFFFF0028FFFFFF
(1578925462.212500) can0 1CFE9201#FF0071FFFFFFFFFF
(1578925462.213050) can0 18FEDB01#102D102D102DFFFF
(1578925462.213700) can0 0CF00400#017D7D532A00F47D
(1578925462.214300) can0 18FF3000#0000AFFFFFFFFFFF
(1578925462.218300) can0 18F0233D#FFFFFFFFFF2BFFFF
(1578925462.218850) can0 14FEF131#CFFFFFF300FFFF30
(1578925462.219450) can0 18FD413D#FFFFFFFFFCFCFCFC
(1578925462.223550) can0 0CF00400#017D7D512A00F47D
(1578925462.224150) can0 0CF00300#DD0000FFFFFF5FFF
(1578925462.224750) can0 14FFA000#FCFFFFFFFFFFFFFF
(1578925462.225350) can0 18FEF200#00000000F304FFFF
(1578925462.228450) can0 0CF00421#FFFFFFFFFFFFFFFF
(1578925462.232050) can0 18F00E3D#A00FFFFFFFFFFFFF
(1578925462.232650) can0 18F00F3D#9010FFFFFFFFFFFF
(1578925462.233650) can0 0CF00400#017D7D572A00F47D
(1578925462.234300) can0 18FEDF00#850013FF7D7F07FF
(1578925462.236350) can0 0C00000B#FCFFFAFAFFFFFFFF
(1578925462.238550) can0 14FDA421#FFFFFFFFFFFFFFFF
(1578925462.239300) can0 10FF2121#72551FD4D0FFFFE1
(1578925462.243550) can0 0CF00400#017D7D532A00F47D
(1578925462.248050) can0 18FEF117#F3FFFFFFFFFFFFFF
(1578925462.248650) can0 14FEF031#FFFFFFFFFFFC00FF
(1578925462.249350) can0 14FF2321#010CE1FFFFFFFFFF
(1578925462.253500) can0 0CF00400#017D7D492A00F47D
(1578925462.254100) can0 18FEF000#FFFFFF0000F000FF
(1578925462.256400) can0 0CFF0281#4A038001D2006100
(1578925462.257000) can0 0CF00A01#660EE624FFFFFFFF
(1578925462.257550) can0 10F01A01#C48EFFFFFFFFFFFF
(1578925462.259350) can0 14FF0121#FFFFFFFFFFFFFCFF
(1578925462.263600) can0 0CF00400#017D7D382A00F47D
(1578925462.264200) can0 14FD3E00#D04EFF094CFFFFFF
(1578925462.264750) can0 18FEE000#35B8380035B83800
(1578925462.268550) can0 18F0233D#FFFFFFFFFF2BFFFF
(1578925462.269400) can0 14FF0221#FFFFFFFFFFFFFFFF
(1578925462.273550) can0 18FEBF0B#C64C7C7D6F6EFFFF
(1578925462.274100) can0 0CF00400#017D7D342A00F47D
(1578925462.274700) can0 0CF00300#DD0000FFFFFF5FFF
(1578925462.275250) can0 18FEF100#C3904C1000000030
(1578925462.281350) can0 18FF01CA#F0FFFFFF044D061A
(1578925462.282050) can0 18F00E3D#A00FFFFFFFFFFFFF
(1578925462.282600) can0 18F00F3D#9010FFFFFFFFFFFF
(1578925462.283200) can0 18FD8C3D#19000B00FFFFFFFF
(1578925462.283800) can0 18FDB23D#FFFFCC4F1000FFFF
(1578925462.284350) can0 0CF00400#017D7D2D2A00F47D
(1578925462.284900) can0 18FDB300#FFFF6753FFFFFFFF
(1578925462.285300) can0 18EA0025#E9FE00
(1578925462.285900) can0 18FDB400#C540C540FFFFFFFF
(1578925462.286450) can0 18FE4F3E#0400FFFFFFFFFFFF
(1578925462.287050) can0 18FEDF00#850013FF7D7907FF
(1578925462.288650) can0 14F00031#CFFFFFFFFFFFFFFF
(1578925462.289450) can0 18F0010B#C0FFF0FFFF0DFF3F
(1578925462.290600) can0 10FF2121#72551FD4D0FFFFE1
(1578925462.292300) can0 14FF3131#0430030000FFFFF0
(1578925462.293650) can0 0CF00400#017D7D232A00F47D
(1578925462.294300) can0 18FEE900#7EC405007BC10500
(1578925462.298450) can0 14F00131#FFFFFFFF00FFFFFF
(1578925462.303550) can0 0CF00400#017D7D1D2A00F47D
(1578925462.304150) can0 18F0000F#007DFFFF0F7DFFFF
(1578925462.304750) can0 18FEF600#FF003D29FFC340FF
(1578925462.305750) can0 0CFF0381#0000000000000007
(1578925462.306700) can0 0CF00A01#660ED824FFFFFFFF
(1578925462.307300) can0 10F01A01#C88EFFFFFFFFFFFF
(1578925462.307850) can0 10FCFD01#FFFFFFFF2C2CFFFF
(1578925462.308400) can0 18FD9401#C407FFFF3B28D901
(1578925462.309000) can0 14FEF121#F3FFFF1FFFFFFFFF
(1578925462.309550) can0 18FDA101#A51AFFFFFFFF00FF
(1578925462.310150) can0 10FDA301#FFFFFFFFFFFFFFFF
(1578925462.310750) can0 18FDAA01#FFFFFFFFFFFFFF29
(1578925462.311350) can0 18FDD001#FFFFFF0028FFFFFF
(1578925462.311900) can0 1CFE9201#FF0071FFFFFFFFFF
(1578925462.312500) can0 18FEDB01#102D102D102DFFFF
(1578925462.313650) can0 0CF00400#017D7D172A00F47D
(1578925462.314250) can0 18FF3000#0000AFFFFFFFFFFF
(1578925462.318350) can0 18F0233D#FFFFFFFFFF2BFFFF
(1578925462.318900) can0 14FEF131#CFFFFFF300FFFF30
(1578925462.319450) can0 18FD413D#FFFFFFFFFCFCFCFC
(1578925462.323600) can0 0CF00400#017D7D142A00F47D
(1578925462.324150) can0 0CF00300#DD0000FFFFFF5CFF
(1578925462.324750) can0 14FFA000#FCFFFFFFFFFFFFFF
(1578925462.325400) can0 18FEF200#00000000F304FFFF
(1578925462.328500) can0 0CF00421#FFFFFFFFFFFFFFFF
(1578925462.332050) can0 18F00E3D#A00FFFFFFFFFFFFF
(1578925462.332650) can0 18F00F3D#9010FFFFFFFFFFFF
(1578925462.333700) can0 0CF00400#017D7D0D2A00F47D
(1578925462.334300) can0 18FEDF00#850013FF7D7907FF
(1578925462.336450) can0 0C00000B#FCFFFAFAFFFFFFFF
(1578925462.338450) can0 14FDA421#FFFFFFFFFFFFFFFF
(1578925462.339250) can0 10FF2121#72551FD4D0FFFFE1
(1578925462.343550) can0 0CF00400#017D7D032A00F47D
(1578925462.348050) can0 18FEF117#F3FFFFFFFFFFFFFF
(1578925462.348650) can0 14FEF031#FFFFFFFFFFFC00FF
(1578925462.349350) can0 14FF2321#010CE1FFFFFFFFFF
(1578925462.353500) can0 0CF00400#017D7DF82900F47D
(1578925462.354150) can0 18FEF000#FFFFFF0000F000FF
(1578925462.355850) can0 0CFF0281#45037F01D2006100
(1578925462.356700) can0 0CF00A01#660EC924FFFFFFFF
(1578925462.357250) can0 10F01A01#CC8EFFFFFFFFFFFF
(1578925462.357850) can0 0C00100B#FCFFFA00FFFFFFFF
(1578925462.359350) can0 14FF0121#FFFFFFFFFFFFFCFF
(1578925462.363000) can0 0C000F0B#FCFFFA00FFFFFFFF
(1578925462.363600) can0 0CF00400#017D7DFC2900F47D
(1578925462.364200) can0 18FEE000#35B8380035B83800
(1578925462.368300) can0 0C00290B#FCFFFA00FFFFFFFF
(1578925462.368850) can0 18F0233D#FFFFFFFFFF2BFFFF
(1578925462.369450) can0 14FF0221#FFFFFFFFFFFFFFFF
(1578925462.373600) can0 18FEBF0B#574C7C7D6F6FFFFF
(1578925462.374150) can0 0CF00400#017D7DFC2900F47D
(1578925462.374750) can0 0CF00300#DD0000FFFFFF5CFF
(1578925462.375350) can0 18FEF100#C3484C1000000030
(1578925462.382050) can0 18F00E3D#A00FFFFFFFFFFFFF
(1578925462.382650) can0 18F00F3D#9010FFFFFFFFFFFF
(1578925462.383200) can0 18FD8C3D#18000A00FFFFFFFF
(1578925462.383800) can0 18FDB23D#FFFFCC4F1000FFFF
(1578925462.384350) can0 0CF00400#017D7DFC2900F47D
(1578925462.384900) can0 18FDB300#FFFF6753FFFFFFFF
(1578925462.385550) can0 18FE4F3E#0400FFFFFFFFFFFF
(1578925462.386100) can0 18FDB400#C540C540FFFFFFFF
(1578925462.386650) can0 18FEDF00#850013FF7D7207FF
(1578925462.387250) can0 18FECA00#03FF00000000FFFF
(1578925462.388650) can0 14F00031#CFFFFFFFFFFFFFFF
(1578925462.389300) can0 18E00021#FFFFFFFFFFFFFFFF
(1578925462.389900) can0 18F0010B#C0FFF0FFFF0DFF3F
(1578925462.390650) can0 10FF2121#72551FD4D0FFFFE1
(1578925462.392350) can0 14FF3131#0430030000FFFFF0
(1578925462.393700) can0 0CF00400#017D7DFB2900F47D
(1578925462.398400) can0 14F00131#FFFFFFFF00FFFFFF
(1578925462.403550) can0 0CF00400#017D7DFB2900F47D
(1578925462.404150) can0 18F0000F#007DFFFF0F7DFFFF
(1578925462.405650) can0 0CFF0381#0000000000000007
(1578925462.406700) can0 0CF00A01#6D0EBB24FFFFFFFF
(1578925462.407250) can0 10F01A01#D08EFFFFFFFFFFFF
(1578925462.407850) can0 10FCFD01#FFFFFFFFD02BFFFF
(1578925462.408400) can0 18FD9401#C407FFFF2728DA01
(1578925462.409000) can0 10FECA47#00FF00000000FFFF
(1578925462.409600) can0 18FDA101#B11AFFFFFFFF00FF
(1578925462.410150) can0 14FEF121#F3FFFF1FFFFFFFFF
(1578925462.410700) can0 10FDA301#FFFFFFFFFFFFFFFF
(1578925462.411300) can0 18FDAA01#FFFFFFFFFFFFFF29
(1578925462.411900) can0 18FDD001#FFFFFF0029FFFFFF
(1578925462.412500) can0 1CFE9201#FF0071FFFFFFFFFF
(1578925462.413050) can0 18FEDB01#992B992B992BFFFF
(1578925462.413650) can0 18FD6501#D30DFFFFFFFFFFFF
(1578925462.414200) can0 0CF00400#017D7DFB2900F47D
(1578925462.414850) can0 18FF3000#0000AFFFFFFFFFFF
(1578925462.415800) can0 18FECA0B#00FF00000000FFFF
(1578925462.418350) can0 18F0233D#FFFFFFFFFF2BFFFF
(1578925462.418900) can0 10FECA31#00FF00000000FFFF
(1578925462.419450) can0 18FD413D#FFFFFFFFFCFCFCFC
(1578925462.420050) can0 14FEF131#CFFFFFF300FFFF30
(1578925462.423600) can0 0CF00400#017D7DF12900F47D
(1578925462.424200) can0 0CF00300#DD0000FFFFFF5CFF
(1578925462.424800) can0 14FFA000#FCFFFFFFFFFFFFFF
(1578925462.425400) can0 18FEF200#00000000F304FFFF
(1578925462.428500) can0 0CF00421#FFFFFFFFFFFFFFFF
(1578925462.429200) can0 10FECA21#00FF00000000FFFF
(1578925462.432050) can0 18F00E3D#A00FFFFFFFFFFFFF
(1578925462.432600) can0 18F00F3D#9010FFFFFFFFFFFF
(1578925462.433700) can0 0CF00400#017D7DE92900F47D
(1578925462.434250) can0 18FEDF00#850013FF7D7207FF
(1578925462.436500) can0 0C00000B#FCFFFAFAFFFFFFFF
(1578925462.438400) can0 14FDA421#FFFFFFFFFFFFFFFF
(1578925462.439100) can0 1CFEC347#FFFFFFFFFFFFFFFF
(1578925462.439750) can0 10FF2121#72551FD4D0FFFFE1
(1578925462.443600) can0 0CF00400#017D7DE52900F47D
(1578925462.448450) can0 18FEF117#F3FFFFFFFFFFFFFF
(1578925462.449000) can0 14FEF031#FFFFFFFFFFFC00FF
(1578925462.449700) can0 14FF2321#010CE1FFFFFFFFFF
(1578925462.453550) can0 0CF00400#017D7DE32900F47D
(1578925462.454150) can0 18FEF000#FFFFFF0000F000FF
(1578925462.455750) can0 0CFF0281#44037F01D2006100
(1578925462.456700) can0 0CF00A01#6D0EB424FFFFFFFF
(1578925462.457300) can0 10F01A01#D08EFFFFFFFFFFFF
(1578925462.458550) can0 18FF2421#8CF0FFFFFFFFFFFF
(1578925462.459300) can0 14FF0121#FFFFFFFFFFFFFCFF
(1578925462.463600) can0 0CF00400#017D7DDC2900F47D
(1578925462.464200) can0 18FEE000#35B8380035B83800
(1578925462.468450) can0 10FECA25#00FF00000000FFFF
(1578925462.469000) can0 18F0233D#FFFFFFFFFF2BFFFF
(1578925462.469600) can0 14FF0221#FFFFFFFFFFFFFFFF
(1578925462.473650) can0 18FEBF0B#1B4C7D7C6E6EFFFF
(1578925462.474250) can0 0CF00400#017D7DD12900F47D
(1578925462.474800) can0 0CF00300#DD0000FFFFFF5CFF
(1578925462.475400) can0 18FEF100#C3CE4B1000000030
(1578925462.478550) can0 18FEF521#FFFFFF8022FFFFFF
(1578925462.482050) can0 18F00E3D#A00FFFFFFFFFFFFF
(1578925462.482650) can0 18F00F3D#9010FFFFFFFFFFFF
(1578925462.483200) can0 18FD8C3D#18000A00FFFFFFFF
(1578925462.483800) can0 18FDB23D#FFFFCC4F1000FFFF
(1578925462.484350) can0 0CF00400#017D7DBC2900F47D
(1578925462.484900) can0 18FDB300#FFFF6753FFFFFFFF
(1578925462.485500) can0 18FE4F3E#0400FFFFFFFFFFFF
(1578925462.486100) can0 18FDB400#C540C540FFFFFFFF
(1578925462.486650) can0 18FEDF00#850013FF7D6E07FF
(1578925462.488600) can0 14F00031#CFFFFFFFFFFFFFFF
(1578925462.489600) can0 18F0010B#C0FFF0FFFF0DFF3F
(1578925462.490650) can0 10FF2121#72551FD4D0FFFFE1
(1578925462.493250) can0 14FF3131#0430030000FFFFF0
(1578925462.493800) can0 0CF00400#017D7DB42900F47D
(1578925462.498400) can0 14F00131#FFFFFFFF00FFFFFF
(1578925462.503550) can0 0CF00400#017D7DB72900F47D
(1578925462.504150) can0 18F0000F#007DFFFF0F7DFFFF
(1578925462.505500) can0 0CFF0381#0000000000000007
(1578925462.506700) can0 0CF00A01#740EAC24FFFFFFFF
(1578925462.507250) can0 10F01A01#D08EFFFFFFFFFFFF
(1578925462.507850) can0 10FCFD01#FFFFFFFFAC2BFFFF
(1578925462.508400) can0 18FD9401#C407FFFF2928DA01
(1578925462.508950) can0 14FEF121#F3FFFF1FFFFFFFFF
(1578925462.509550) can0 18FDA101#BC1AFFFFFFFF00FF
(1578925462.510150) can0 10FDA301#FFFFFFFFFFFFFFFF
(1578925462.510750) can0 18FDAA01#FFFFFFFFFFFFFF29
(1578925462.511300) can0 18FDD001#FFFFFF0029FFFFFF
(1578925462.511900) can0 1CFE9201#FF0071FFFFFFFFFF
(1578925462.512500) can0 18FEDB01#992B992B992BFFFF
(1578925462.513650) can0 0CF00400#017D7DAD2900F47D
(1578925462.514300) can0 18FF3000#0000AFFFFFFFFFFF
(1578925462.518300) can0 18F0233D#FFFFFFFFFF2BFFFF
(1578925462.518900) can0 14FEF131#CFFFFFF300FFFF30
(1578925462.519450) can0 18FD413D#FFFFFFFFFCFCFCFC
(1578925462.523550) can0 0CF00400#017D7DAD2900F47D
(1578925462.524150) can0 0CF00300#DD0000FFFFFF5CFF
(1578925462.524800) can0 14FFA000#FCFFFFFFFFFFFFFF
(1578925462.525350) can0 18FEF200#00000000F304FFFF
(1578925462.528650) can0 0CF00421#FFFFFFFFFFFFFFFF
(1578925462.532050) can0 18F00E3D#A00FFFFFFFFFFFFF
(1578925462.532600) can0 18F00F3D#9010FFFFFFFFFFFF
(1578925462.533700) can0 0CF00400#017D7DAD2900F47D
(1578925462.534300) can0 18FEDF00#850013FF7D6E07FF
(1578925462.536550) can0 0C00000B#FCFFFAFAFFFFFFFF
(1578925462.538500) can0 14FDA421#FFFFFFFFFFFFFFFF
(1578925462.539300) can0 10FF2121#72551FD4D0FFFFE1
(1578925462.543600) can0 0CF00400#017D7DB42900F47D
(1578925462.548050) can0 18FEF117#F3FFFFFFFFFFFFFF
(1578925462.548600) can0 14FEF031#FFFFFFFFFFFC00FF
(1578925462.549300) can0 14FF2321#010CE1FFFFFFFFFF
(1578925462.553550) can0 0CF00400#017D7DB72900F47D
(1578925462.554150) can0 18FEF000#FFFFFF0000F000FF
(1578925462.555700) can0 0CFF0281#45037F01D2006100
(1578925462.556900) can0 0CF00A01#7C0E9024FFFFFFFF
(1578925462.557450) can0 10F01A01#D48EFFFFFFFFFFFF
(1578925462.558050) can0 0C00100B#FCFFFA00FFFFFFFF
(1578925462.558600) can0 18FEF621#FFFFFFFFFFFFFFFF
(1578925462.559350) can0 14FF0121#FFFFFFFFFFFFFCFF
(1578925462.563100) can0 0C000F0B#FCFFFA00FFFFFFFF
(1578925462.563700) can0 0CF00400#017D7DB72900F47D
(1578925462.564250) can0 18FEE000#35B8380035B83800
(1578925462.568400) can0 0C00290B#FCFFFA00FFFFFFFF
(1578925462.569000) can0 18F0233D#FFFFFFFFFF2BFFFF
(1578925462.569600) can0 18FEF721#FFFFFFFF1A01FFFF
(1578925462.570300) can0 14FF0221#FFFFFFFFFFFFFFFF
(1578925462.573750) can0 18FEBF0B#BB4B7D7D6F6DFFFF
(1578925462.574300) can0 0CF00400#017D7DAD2900F47D
(1578925462.574900) can0 0CF00300#DD0000FFFFFF5CFF
(1578925462.575450) can0 18FEF100#C3624B1000000030
(1578925462.578450) can0 18E00031#FFFFFFFFFFF3FFFF
(1578925462.580650) can0 10FF2121#72551FD0D0FFFFE1
(1578925462.582050) can0 18F00E3D#A00FFFFFFFFFFFFF
(1578925462.582650) can0 18F00F3D#9010FFFFFFFFFFFF
(1578925462.583200) can0 18FD8C3D#18000A00FFFFFFFF
(1578925462.583800) can0 18FDB23D#FFFFCC4F1000FFFF
(1578925462.584350) can0 0CF00400#017D7DA32900F47D
(1578925462.584950) can0 18FDB300#FFFF6753FFFFFFFF
(1578925462.585500) can0 18FE4F3E#0400FFFFFFFFFFFF
(1578925462.586100) can0 18FDB400#C540C540FFFFFFFF
(1578925462.586650) can0 18FEDF00#850013FF7D6707FF
(1578925462.588800) can0 14F00031#CFFFFFFFFFFFFFFF
(1578925462.589700) can0 18F0010B#C0FFF0FFFF0DFF3F
(1578925462.591350) can0 14FF3131#0430030000FFFFF0
(1578925462.593650) can0 0CF00400#017D7DA32900F47D
(1578925462.595050) can0 18FF1919#01030A02FFFFFFFF
(1578925462.598500) can0 14F00131#FFFFFFFF00FFFFFF
(1578925462.600100) can0 18FF1B19#FFFCFFFFFFFFFFFF
(1578925462.600850) can0 10FF2121#72551FD0D0FFFFE1
(1578925462.603600) can0 0CF00400#017D7D912900F47D
(1578925462.604200) can0 18F0000F#007DFFFF0F7DFFFF
(1578925462.605300) can0 18E00019#00FFFFFFFFFFFFFF
(1578925462.605900) can0 0CFF0381#0000000000000007
(1578925462.606750) can0 0CF00A01#7C0E7A24FFFFFFFF
(1578925462.607350) can0 10F01A01#D48EFFFFFFFFFFFF
(1578925462.607900) can0 10FCFD01#FFFFFFFF862BFFFF
(1578925462.608450) can0 18FD9401#C407FFFF1C28DB01
(1578925462.609050) can0 14FEF121#F3FFFF1FFFFFFFFF
(1578925462.609600) can0 18FDA101#BC1AFFFFFFFF00FF
(1578925462.610200) can0 10FDA301#FFFFFFFFFFFFFFFF
(1578925462.610800) can0 18FEF719#FFFFFFFFFFFF1A01
(1578925462.611350) can0 18FDAA01#FFFFFFFFFFFFFF29
(1578925462.611950) can0 18FDD001#FFFFFF0029FFFFFF
(1578925462.612550) can0 1CFE9201#FF0071FFFFFFFFFF
(1578925462.613100) can0 18FEDB01#992B992B992BFFFF
(1578925462.613700) can0 0CF00400#017D7D832900F47D
(1578925462.614300) can0 18FF3000#0000AFFFFFFFFFFF
(1578925462.618300) can0 18F0233D#FFFFFFFFFF2BFFFF
(1578925462.618900) can0 14FEF131#CFFFFFF300FFFF30
(1578925462.619500) can0 18FD413D#FFFFFFFFFCFCFCFC
(1578925462.623600) can0 0CF00400#017D7D742900F47D
(1578925462.624200) can0 0CF00300#DD0000FFFFFF5CFF
(1578925462.624800) can0 14FFA000#FCFFFFFFFFFFFFFF
(1578925462.625400) can0 18FEF200#00000000F304FFFF
(1578925462.628500) can0 0CF00421#FFFFFFFFFFFFFFFF
(1578925462.632050) can0 18F00E3D#A00FFFFFFFFFFFFF
(1578925462.632650) can0 18F00F3D#9010FFFFFFFFFFFF
(1578925462.633700) can0 0CF00400#017D7D6A2900F47D
(1578925462.634300) can0 18FEDF00#850013FF7D6707FF
(1578925462.636650) can0 0C00000B#FCFFFAFAFFFFFFFF
(1578925462.638550) can0 14FDA421#FFFFFFFFFFFFFFFF
(1578925462.639350) can0 10FF2121#72551FD0D0FFFFE1
(1578925462.643600) can0 0CF00400#017D7D612900F47D
(1578925462.648050) can0 18FEF117#F3FFFFFFFFFFFFFF
(1578925462.648600) can0 14FEF031#FFFFFFFFFFFC00FF
(1578925462.649350) can0 14FF2321#010CE1FFFFFFFFFF
(1578925462.653550) can0 0CF00400#017D7D5F2900F47D
(1578925462.654150) can0 18FEF000#FFFFFF0000F000FF
(1578925462.655600) can0 0CFF0281#45037F01D2006100
(1578925462.656150) can0 0CFF0181#7402050000008000
(1578925462.656750) can0 0CF00A01#830E5D24FFFFFFFF
(1578925462.657300) can0 10F01A01#D48EFFFFFFFFFFFF
(1578925462.659300) can0 14FF0121#FFFFFFFFFFFFFCFF
(1578925462.663600) can0 0CF00400#017D7D5C2900F47D
(1578925462.664200) can0 18FEE000#36B8380036B83800
(1578925462.668550) can0 18F0233D#FFFFFFFFFF2BFFFF
(1578925462.669500) can0 14FF0221#FFFFFFFFFFFFFFFF
(1578925462.673800) can0 18FEBF0B#494B7C7D6E6EFFFF
(1578925462.674350) can0 0CF00400#017D7D612900F47D
(1578925462.674950) can0 0CF00300#DD0000FFFFFF5CFF
(1578925462.675550) can0 18FEF100#C3304B1000000030
(1578925462.676100) can0 18FDE000#FFFFFFFFD022FFFF
(1578925462.682050) can0 18F00E3D#A00FFFFFFFFFFFFF
(1578925462.682650) can0 18F00F3D#9010FFFFFFFFFFFF
(1578925462.683250) can0 18FD8C3D#18000A00FFFFFFFF
(1578925462.683800) can0 18FDB23D#FFFFCC4F1000FFFF
(1578925462.684350) can0 0CF00400#017D7D732900F47D
(1578925462.684950) can0 18FDB300#FFFF6753FFFFFFFF
(1578925462.685500) can0 18FE4F3E#0400FFFFFFFFFFFF
(1578925462.686100) can0 18FDB400#C540C540FFFFFFFF
(1578925462.686650) can0 18FEDF00#850013FF7D6507FF
(1578925462.687250) can0 18FEEF00#C2FFFF57FFFFFFFA
(1578925462.688700) can0 14F00031#CFFFFFFFFFFFFFFF
(1578925462.689750) can0 18F0010B#C0FFF0FFFF0DFF3F
(1578925462.690700) can0 10FF2121#72551FD0D0FFFFE1
(1578925462.693250) can0 14FF3131#0430030000FFFFF0
(1578925462.693800) can0 0CF00400#017D7D742900F47D
(1578925462.694450) can0 18FCDC00#E0FEFEFFFFFFFFFF
(1578925462.698450) can0 14F00131#FFFFFFFF00FFFFFF
(1578925462.703600) can0 0CF00400#017D7D712900F47D
(1578925462.704150) can0 18F0000F#007DFFFF0F7DFFFF
(1578925462.705250) can0 0CFF0381#0000000000000007
(1578925462.706700) can0 0CF00A01#830E5D24FFFFFFFF
(1578925462.707300) can0 10F01A01#D88EFFFFFFFFFFFF
(1578925462.707850) can0 10FCFD01#FFFFFFFF502BFFFF
(1578925462.708450) can0 14FEF121#F3FFFF1FFFFFFFFF
(1578925462.709050) can0 18FD9401#C407FFFF1628DC01
(1578925462.709650) can0 18FDA101#C81AFFFFFFFF00FF
(1578925462.710200) can0 10FDA301#FFFFFFFFFFFFFFFF
(1578925462.710800) can0 18FDAA01#FFFFFFFFFFFFFF29
(1578925462.711400) can0 18FDD001#FFFFFF0029FFFFFF
(1578925462.712000) can0 1CFE9201#FF0071FFFFFFFFFF
(1578925462.712500) can0 18FEDB01#992B992B992BFFFF
(1578925462.713700) can0 0CF00400#017D7D6A2900F47D
(1578925462.714300) can0 18FF3000#0000AFFFFFFFFFFF
(1578925462.718300) can0 18F0233D#FFFFFFFFFF2BFFFF
(1578925462.718900) can0 14FEF131#CFFFFFF300FFFF30
(1578925462.719500) can0 18FD413D#FFFFFFFFFCFCFCFC
(1578925462.720800) can0 18A9FE31#FFFFFFFFFFFFFFFF
(1578925462.723600) can0 0CF00400#017D7D652900F47D
(1578925462.724200) can0 0CF00300#DD0000FFFFFF5CFF
(1578925462.724800) can0 14FFA000#FCFFFFFFFFFFFFFF
(1578925462.725400) can0 18FEF200#00000000F304FFFF
(1578925462.726000) can0 18FEF500#CBFFFFFFFF3DFFFF
(1578925462.728500) can0 0CF00421#FFFFFFFFFFFFFFFF
(1578925462.732050) can0 18F00E3D#A00FFFFFFFFFFFFF
(1578925462.732650) can0 18F00F3D#9010FFFFFFFFFFFF
(1578925462.733750) can0 0CF00400#017D7D572900F47D
(1578925462.734300) can0 18FEDF00#850013FF7D6507FF
(1578925462.736700) can0 0C00000B#FCFFFAFAFFFFFFFF
(1578925462.738450) can0 14FDA421#FFFFFFFFFFFFFFFF
(1578925462.739300) can0 10FF2121#72551FD0D0FFFFE1
(1578925462.743600) can0 0CF00400#017D7D492900F47D
(1578925462.744200) can0 18FEEE00#8049A02EFFFF3DFF
(1578925462.748450) can0 14FEF031#FFFFFFFFFFFC00FF
(1578925462.749000) can0 18FEF117#F3FFFFFFFFFFFFFF
(1578925462.749550) can0 14FF2321#010CE1FFFFFFFFFF
(1578925462.753550) can0 0CF00400#017D7D3C2900F47D
(1578925462.754150) can0 18FEF000#FFFFFF0000F000FF
(1578925462.754750) can0 18FEA400#FFFFFFFFD77D2022
(1578925462.755450) can0 0CFF0281#45037F01D2006100
(1578925462.756900) can0 0CF00A01#830E5D24FFFFFFFF
(1578925462.757500) can0 10F01A01#D88EFFFFFFFFFFFF
(1578925462.758050) can0 0C00100B#FCFFFA00FFFFFFFF
(1578925462.759300) can0 14FF0121#FFFFFFFFFFFFFCFF
(1578925462.763300) can0 0C000F0B#FCFFFA00FFFFFFFF
(1578925462.763800) can0 0CF00400#017D7D342900F47D
(1578925462.764400) can0 14FD3E00#BC4EFFF64BFFFFFF
(1578925462.765000) can0 18FEE000#36B8380036B83800
(1578925462.768550) can0 18F0233D#FFFFFFFFFF2BFFFF
(1578925462.769150) can0 0C00290B#FCFFFA00FFFFFFFF
(1578925462.769700) can0 14FF0221#FFFFFFFFFFFFFFFF
(1578925462.773850) can0 0CF00400#017D7D332900F47D
(1578925462.774400) can0 18FEBF0B#054B7D7D6E6FFFFF
(1578925462.775000) can0 0CF00300#DD0000FFFFFF5CFF
(1578925462.775550) can0 18FEF100#C3CE4A1000000030
(1578925462.776200) can0 18FEBD00#00F00000FFFFFFFF
(1578925462.781750) can0 18FF01CA#F0FFFFFF044F061A
(1578925462.782300) can0 18F00E3D#A00FFFFFFFFFFFFF
(1578925462.782850) can0 18F00F3D#9010FFFFFFFFFFFF
(1578925462.783450) can0 18FD8C3D#18000A00FFFFFFFF
(1578925462.784050) can0 0CF00400#017D7D292900F47D
(1578925462.784600) can0 18FDB23D#FFFFCC4F1000FFFF
(1578925462.785200) can0 18FE4F3E#0400FFFFFFFFFFFF
(1578925462.785750) can0 18FDB300#FFFF6753FFFFFFFF
(1578925462.786300) can0 18FEDF00#850013FF7D6207FF
(1578925462.786900) can0 18FDB400#C540C540FFFFFFFF
(1578925462.787500) can0 18FF7400#D600FFFFFFFCFFFF
(1578925462.788750) can0 14F00031#CFFFFFFFFFFFFFFF
(1578925462.789800) can0 18F0010B#C0FFF0FFFF0DFF3F
(1578925462.790650) can0 10FF2121#72551FD0D0FFFFE1
(1578925462.791350) can0 14FF3131#0430030000FFFFF0
(1578925462.793650) can0 0CF00400#017D7D212900F47D
(1578925462.794300) can0 18FD7C00#F8F7C07431FFE3FF
(1578925462.798450) can0 14F00131#FFFFFFFF00FFFFFF
(1578925462.803550) can0 0CF00400#017D7D1C2900F47D
(1578925462.804150) can0 18F0000F#007DFFFF0F7DFFFF
(1578925462.804750) can0 18FEF600#FF003D29FFC340FF
(1578925462.805350) can0 0CFF0381#0000000000000007
(1578925462.805900) can0 18FEE400#007FFFFC007FFFFF
(1578925462.806900) can0 0CF00A01#8A0E4024FFFFFFFF
(1578925462.807500) can0 10F01A01#D88EFFFFFFFFFFFF
(1578925462.808050) can0 10FCFD01#FFFFFFFF092BFFFF
(1578925462.808650) can0 14FEF121#F3FFFF1FFFFFFFFF
(1578925462.809200) can0 18FD9401#C407FFFF0728DD01
(1578925462.809800) can0 18FDA101#D41AFFFFFFFF00FF
(1578925462.810350) can0 10FDA301#FFFFFFFFFFFFFFFF
(1578925462.810950) can0 18FDAA01#FFFFFFFFFFFFFF29
(1578925462.811550) can0 18FDD001#FFFFFF0029FFFFFF
(1578925462.812150) can0 1CFE9201#FF0071FFFFFFFFFF
(1578925462.812700) can0 18FEDB01#502A502A502AFFFF
(1578925462.813700) can0 0CF00400#017D7D2A2900F47D
(1578925462.814300) can0 18FF3000#0000AFFFFFFFFFFF
(1578925462.818350) can0 18F0233D#FFFFFFFFFF2BFFFF
(1578925462.818900) can0 14FEF131#CFFFFFF300FFFF30
(1578925462.819450) can0 18FD413D#FFFFFFFFFCFCFCFC
(1578925462.823600) can0 0CF00400#017D7D372900F47D
(1578925462.824200) can0 0CF00300#DD0000FFFFFF5CFF
(1578925462.824750) can0 14FFA000#FCFFFFFFFFFFFFFF
(1578925462.825400) can0 18FEF200#00000000F304FFFF
(1578925462.828500) can0 0CF00421#FFFFFFFFFFFFFFFF
(1578925462.832050) can0 18F00E3D#A00FFFFFFFFFFFFF
(1578925462.832650) can0 18F00F3D#9010FFFFFFFFFFFF
(1578925462.833700) can0 0CF00400#017D7D3C2900F47D
(1578925462.834300) can0 18FEDF00#850013FF7D6207FF
(1578925462.834900) can0 18FE5600#B83FFFFF1F1F00FF
(1578925462.836750) can0 0C00000B#FCFFFAFAFFFFFFFF
(1578925462.838500) can0 14FDA421#FFFFFFFFFFFFFFFF
(1578925462.839300) can0 10FF2121#72551FD0D0FFFFE1
(1578925462.843600) can0 0CF00400#017D7D3F2900F47D
(1578925462.844200) can0 18FEC100#3AFD89053AFD8905
(1578925462.848450) can0 18FEF117#F3FFFFFFFFFFFFFF
(1578925462.849050) can0 14FEF031#FFFFFFFFFFFC00FF
(1578925462.849750) can0 14FF2321#010CE1FFFFFFFFFF
(1578925462.853550) can0 0CF00400#017D7D372900F47D
(1578925462.854150) can0 18FEF000#FFFFFF0000F000FF
(1578925462.854750) can0 18FEF700#FFFFFFFF1A011A01
(1578925462.855300) can0 0CFF0281#45037F01D2006100
(1578925462.856700) can0 0CF00A01#910E3224FFFFFFFF
(1578925462.857300) can0 10F01A01#DC8EFFFFFFFFFFFF
(1578925462.859300) can0 14FF0121#FFFFFFFFFFFFFCFF
(1578925462.863600) can0 0CF00400#017D7D2F2900F47D
(1578925462.864250) can0 18FEE000#36B8380036B83800
(1578925462.868550) can0 18F0233D#FFFFFFFFFF2BFFFF
(1578925462.869500) can0 14FF0221#FFFFFFFFFFFFFFFF
(1578925462.873900) can0 0CF00400#017D7D1F2900F47D
(1578925462.874450) can0 18FEBF0B#BB4A7C7D6E6DFFFF
(1578925462.875000) can0 0CF00300#DD0000FFFFFF5CFF
(1578925462.875600) can0 18FEF100#C36C4A1000000030
(1578925462.882100) can0 18F00E3D#A00FFFFFFFFFFFFF
(1578925462.882650) can0 18F00F3D#9010FFFFFFFFFFFF
(1578925462.883250) can0 18FECA3D#03FF00000000FFFF
(1578925462.883800) can0 18FD8C3D#17000A00FFFFFFFF
(1578925462.884350) can0 0CF00400#017D7D0F2900F47D
(1578925462.884950) can0 18FDB23D#FFFFCC4F1000FFFF
(1578925462.885550) can0 18FE4F3E#0400FFFFFFFFFFFF
(1578925462.886100) can0 18FDB300#FFFF6753FFFFFFFF
(1578925462.886700) can0 18FEDF00#850013FF7D5E07FF
(1578925462.887250) can0 18FDB400#77407740FFFFFFFF
(1578925462.887850) can0 18FFA63D#00FF00000000FFFF
(1578925462.888800) can0 14F00031#CFFFFFFFFFFFFFFF
(1578925462.889900) can0 18F0010B#C0FFF0FFFF0DFF3F
(1578925462.890650) can0 10FF2121#72551FD0D0FFFFE1
(1578925462.893250) can0 14FF3131#0430030000FFFFF0
(1578925462.893850) can0 0CF00400#017D7DFC2800F47D
(1578925462.898450) can0 14F00131#FFFFFFFF00FFFFFF
(1578925462.903600) can0 0CF00400#017D7DF82800F47D
(1578925462.904150) can0 18F0000F#007DFFFF0F7DFFFF
(1578925462.905100) can0 0CFF0381#0000000000000007
(1578925462.906700) can0 0CF00A01#910E3224FFFFFFFF
(1578925462.907300) can0 10F01A01#DC8EFFFFFFFFFFFF
(1578925462.907850) can0 18FECA01#03FF00000000FFFF
(1578925462.908500) can0 10FCFD01#FFFFFFFFF32AFFFF
(1578925462.909050) can0 14FEF121#F3FFFF1FFFFFFFFF
(1578925462.909600) can0 18FD9401#C407FFFF0028DD01
(1578925462.910150) can0 18FDA101#D41AFFFFFFFF00FF
(1578925462.910750) can0 10FDA301#FFFFFFFFFFFFFFFF
(1578925462.911350) can0 18FDAA01#FFFFFFFFFFFFFF29
(1578925462.911950) can0 18FD9B3D#FFFFFFFFFFFFFFFF
(1578925462.912550) can0 18FDD001#FFFFFF0029FFFFFF
(1578925462.913200) can0 1CFE9201#FF0071FFFFFFFFFF
(1578925462.913750) can0 18FEDB01#502A502A502AFFFF
(1578925462.914300) can0 18FD6501#C70DFFFFFFFFFFFF
(1578925462.914900) can0 0CF00400#017D7DF12800F47D
(1578925462.915450) can0 18FD6601#FF7EFFFFFFFFFFFF
(1578925462.916050) can0 18FF3000#0000AFFFFFFFFFFF
(1578925462.916600) can0 18FE6901#D0241F2DFFFFDB22
(1578925462.917200) can0 18FE9701#FFFFFFFFFFFFFFFF
(1578925462.917800) can0 18FE9801#6027FFFFFFFFFFFF
(1578925462.918400) can0 18FE9901#007DFFFFFFFFFFFF
(1578925462.918950) can0 14FEF131#CFFFFFF300FFFF30
(1578925462.919550) can0 18FE9A01#201DFFFFFFFFFFFF
(1578925462.920100) can0 18FEDD01#FF311CFFFFFFFFFF
(1578925462.920700) can0 18FFAA01#0000ED2A197F9569
(1578925462.921250) can0 18FFAB01#9317007C7DE4F401
(1578925462.921800) can0 18FFAC01#00E61A195700F0FF
(1578925462.922400) can0 18FFAD01#0CE4FFFFFFFFFFFF
(1578925462.923000) can0 18FFAE01#00FF00000000FFFF
(1578925462.923600) can0 18F0233D#FFFFFFFFFF2BFFFF
(1578925462.924150) can0 0CF00400#017D7DE52800F47D
(1578925462.924700) can0 18FD413D#FFFFFFFFFCFCFCFC
(1578925462.925300) can0 0CF00300#DD0000FFFFFF5CFF
(1578925462.925900) can0 14FFA000#FCFFFFFFFFFFFFFF
(1578925462.926500) can0 18FEF200#00000000F304FFFF
(1578925462.928550) can0 18FFA53D#000A651B064CCB4E
(1578925462.929150) can0 0CF00421#FFFFFFFFFFFFFFFF
(1578925462.932050) can0 18F00E3D#A00FFFFFFFFFFFFF
(1578925462.932650) can0 18F00F3D#9010FFFFFFFFFFFF
(1578925462.933700) can0 0CF00400#017D7DDC2800F47D
(1578925462.934300) can0 18FEDF00#850013FF7D5E07FF
(1578925462.936850) can0 0C00000B#FCFFFAFAFFFFFFFF
(1578925462.938550) can0 14FDA421#FFFFFFFFFFFFFFFF
(1578925462.939350) can0 10FF2121#72551FD0D0FFFFE1
(1578925462.943600) can0 0CF00400#017D7DD82800F47D
(1578925462.948050) can0 18FEF117#F3FFFFFFFFFFFFFF
(1578925462.948650) can0 14FEF031#FFFFFFFFFFFC00FF
(1578925462.949350) can0 14FF2321#010CE1FFFFFFFFFF
(1578925462.953550) can0 0CF00400#017D7DE32800F47D
(1578925462.954150) can0 18FEF000#FFFFFF0000F000FF
(1578925462.955200) can0 0CFF0281#45038101D2006100
(1578925462.956750) can0 0CF00A01#980E1524FFFFFFFF
(1578925462.957300) can0 10F01A01#DC8EFFFFFFFFFFFF
(1578925462.958100) can0 0C00100B#FCFFFA00FFFFFFFF
(1578925462.958700) can0 18FF2421#8CF0FFFFFFFFFFFF
(1578925462.959300) can0 10FF2121#72551FD4D0FFFFE1
(1578925462.960700) can0 14FF0121#FFFFFFFFFFFFFCFF
(1578925462.963400) can0 0C000F0B#FCFFFA00FFFFFFFF
(1578925462.963950) can0 0CF00400#017D7DE62800F47D
(1578925462.964550) can0 18FEE000#36B8380036B83800
(1578925462.968550) can0 18F0233D#FFFFFFFFFF2BFFFF
(1578925462.969100) can0 0C00290B#FCFFFA00FFFFFFFF
(1578925462.969750) can0 14FF0221#FFFFFFFFFFFFFFFF
(1578925462.973900) can0 0CF00400#017D7DEE2800F47D
(1578925462.974450) can0 18FEBF0B#4C4A7D7C6F6FFFFF
(1578925462.975000) can0 0CF00300#DD0000FFFFFF5CFF
(1578925462.975600) can0 18FEF100#C3564A1000000030
(1578925462.976200) can0 18FD0700#0300003FFCFFFFFF
(1578925462.978750) can0 18FD3C3D#6009FFFFFFFDFFFF
(1578925462.982050) can0 18F00E3D#A00FFFFFFFFFFFFF
(1578925462.982650) can0 18F00F3D#9010FFFFFFFFFFFF
(1578925462.983200) can0 18FD8C3D#17000A00FFFFFFFF
(1578925462.983800) can0 18FDB23D#FFFFCC4F1000FFFF
(1578925462.984400) can0 0CF00400#017D7DF32800F47D
(1578925462.984950) can0 18FDB300#FFFF6753FFFFFFFF
(1578925462.985550) can0 18FE4F3E#0400FFFFFFFFFFFF
(1578925462.986100) can0 18FDB400#77407740FFFFFFFF
(1578925462.986650) can0 18FEDF00#850013FF7D5707FF
(1578925462.988600) can0 14F00031#CFFFFFFFFFFFFFFF
(1578925462.989950) can0 18F0010B#C0FFF0FFFF0DFF3F
(1578925462.990700) can0 10FF2121#72551FD4D0FFFFE1
(1578925462.993300) can0 14FF3131#0430030000FFFFF0
(1578925462.993850) can0 0CF00400#017D7DF42800F47D
(1578925462.998450) can0 14F00131#FFFFFFFF00FFFFFF
(1578925462.999000) can0 18FFA33D#0000EF058010FFFF
(1578925463.003600) can0 0CF00400#017D7DF12800F47D
(1578925463.004200) can0 18F0000F#007DFFFF0F7DFFFF
(1578925463.004950) can0 0CFF0381#0000000000000007
(1578925463.006950) can0 0CF00A01#980E1C24FFFFFFFF
(1578925463.007550) can0 10F01A01#E08EFFFFFFFFFFFF
(1578925463.008100) can0 10FCFD01#FFFFFFFFBC2AFFFF
(1578925463.008700) can0 14FEF121#F3FFFF1FFFFFFFFF
(1578925463.009250) can0 18FD9401#C407FFFFFF27DE01
(1578925463.009850) can0 18FDA101#D41AFFFFFFFF00FF
(1578925463.010450) can0 10FDA301#FFFFFFFFFFFFFFFF
(1578925463.011050) can0 18FDAA01#FFFFFFFFFFFFFF29
(1578925463.011650) can0 18FFA43D#640070000000FDFF
(1578925463.012250) can0 18FDD001#FFFFFF0029FFFFFF
(1578925463.012800) can0 1CFE9201#FF0071FFFFFFFFFF
(1578925463.013400) can0 18FEDB01#502A502A502AFFFF
(1578925463.013950) can0 0CF00400#017D7DE12800F47D
(1578925463.014550) can0 18FF3000#0000AFFFFFFFFFFF
(1578925463.018350) can0 18F0233D#FFFFFFFFFF2BFFFF
(1578925463.018900) can0 14FEF131#CFFFFFF300FFFF30
(1578925463.019500) can0 18FD413D#FFFFFFFFFCFCFCFC
(1578925463.020100) can0 18FFA23D#0000D01C1427BE0F
(1578925463.023700) can0 0CF00400#017D7DCD2800F47D
(1578925463.024250) can0 0CF00300#DD0000FFFFFF5CFF
(1578925463.024850) can0 14FFA000#FCFFFFFFFFFFFFFF
(1578925463.025450) can0 18FEF200#00000000F304FFFF
(1578925463.028550) can0 0CF00421#FFFFFFFFFFFFFFFF
(1578925463.029100) can0 18FFA03D#29502F0020001DFF
(1578925463.032100) can0 18F00E3D#A00FFFFFFFFFFFFF
(1578925463.032700) can0 18F00F3D#9010FFFFFFFFFFFF
(1578925463.033800) can0 0CF00400#017D7DB82800F47D
(1578925463.034350) can0 18FEDF00#850013FF7D5707FF
(1578925463.036950) can0 0C00000B#FCFFFAFAFFFFFFFF
(1578925463.038400) can0 18FFA13D#0C0BF51030000001
(1578925463.038950) can0 14FDA421#FFFFFFFFFFFFFFFF
(1578925463.039650) can0 10FF2121#72551FD4D0FFFFE1
(1578925463.043650) can0 0CF00400#017D7DB32800F47D
(1578925463.048300) can0 18EA4A17#E6FE00
(1578925463.048900) can0 14FEF031#FFFFFFFFFFFC00FF
(1578925463.049450) can0 18FD0517#03033FFFFFFFFFFF
(1578925463.050050) can0 14FF2321#010CE1FFFFFFFFFF
(1578925463.050650) can0 18FD0417#C0FFFFFFFFFFFFFF
(1578925463.051200) can0 18FEF717#FFFFFFFF1A01FFFF
(1578925463.051800) can0 18FEFA17#FFDEBEFFFFFFFFFF
(1578925463.052350) can0 18FF1817#400000000000FFFF
(1578925463.052950) can0 18FF1917#53FFFFFF020000E4
(1578925463.053550) can0 18FECA17#00FF00000000FFFF
(1578925463.054100) can0 0CF00400#017D7DA92800F47D
(1578925463.054650) can0 18FEFC17#FF88FFFFFFFFFFFF
(1578925463.055250) can0 0CFF0281#45037F01D2006100
(1578925463.055800) can0 18FEF000#FFFFFF0000F000FF
(1578925463.056400) can0 18FEF117#F3FFFFFFFFFFFFFF
(1578925463.057000) can0 0CF00A01#A00E0E24FFFFFFFF
(1578925463.057350) can0 18EA4A17#E8FE00
(1578925463.057900) can0 10F01A01#E08EFFFFFFFFFFFF
(1578925463.058500) can0 18FEC117#3AFD8905FFFFFFFF
(1578925463.059500) can0 14FF0121#FFFFFFFFFFFFFCFF
(1578925463.063650) can0 0CF00400#017D7D9F2800F47D
(1578925463.064250) can0 18FEE000#36B8380036B83800
(1578925463.068600) can0 18F0233D#FFFFFFFFFF2BFFFF
(1578925463.069500) can0 14FF0221#FFFFFFFFFFFFFFFF
(1578925463.073900) can0 0CF00400#017D7D9B2800F47D
(1578925463.074450) can0 18FEBF0B#E7497C7D7171FFFF
(1578925463.075000) can0 0CF00300#DD0000FFFFFF5CFF
(1578925463.075600) can0 18FEF100#C3EA491000000030
(1578925463.082100) can0 18F00E3D#A00FFFFFFFFFFFFF
(1578925463.082650) can0 18F00F3D#9010FFFFFFFFFFFF
(1578925463.083250) can0 18FD8C3D#17000A00FFFFFFFF
(1578925463.083850) can0 18FDB23D#FFFFCC4F1000FFFF
(1578925463.084400) can0 0CF00400#017D7D9B2800F47D
(1578925463.084950) can0 18FDB300#FFFF6753FFFFFFFF
(1578925463.085550) can0 18FE4F3E#0400FFFFFFFFFFFF
(1578925463.086100) can0 18FDB400#77407740FFFFFFFF
(1578925463.086700) can0 18FEDF00#850013FF7D5507FF
(1578925463.088600) can0 14F00031#CFFFFFFFFFFFFFFF
(1578925463.090050) can0 18F0010B#C0FFF0FFFF0DFF3F
(1578925463.090600) can0 10FF2121#72551FD4D0FFFFE1
(1578925463.093300) can0 14FF3131#0430030000FFFFF0
(1578925463.093850) can0 0CF00400#017D7DA12800F47D
(1578925463.094400) can0 18FF2221#0355CF0733F3FFFF
(1578925463.095350) can0 18FF1919#01030A02FFFFFFFF
(1578925463.098500) can0 14F00131#FFFFFFFF00FFFFFF
(1578925463.100000) can0 18FF1B19#FFFCFFFFFFFFFFFF
(1578925463.103650) can0 0CF00400#017D7DA62800F47D
(1578925463.104250) can0 18F0000F#007DFFFF0F7DFFFF
(1578925463.105000) can0 0CFF0381#0000000000000007
(1578925463.106800) can0 0CF00A01#A00E0024FFFFFFFF
(1578925463.107350) can0 10F01A01#E08EFFFFFFFFFFFF
(1578925463.107950) can0 10FCFD01#FFFFFFFFA62AFFFF
(1578925463.108500) can0 18FD9401#C407FFFFF127DE01
(1578925463.109050) can0 14FEF121#F3FFFF1FFFFFFFFF
(1578925463.109650) can0 18FDA101#DF1AFFFFFFFF00FF
(1578925463.110250) can0 10FDA301#FFFFFFFFFFFFFFFF
(1578925463.110800) can0 18FDAA01#FFFFFFFFFFFFFF29
(1578925463.111400) can0 18FDD001#FFFFFF0029FFFFFF
(1578925463.112000) can0 1CFE9201#FF0071FFFFFFFFFF
(1578925463.112600) can0 18FEDB01#502A502A502AFFFF
(1578925463.113750) can0 0CF00400#017D7DAA2800F47D
(1578925463.114350) can0 18FF3000#0000AFFFFFFFFFFF
(1578925463.118400) can0 18F0233D#FFFFFFFFFF2BFFFF
(1578925463.118950) can0 14FEF131#CFFFFFF300FFFF30
(1578925463.119500) can0 18FD413D#FFFFFFFFFCFCFCFC
(1578925463.123650) can0 0CF00400#017D7DA92800F47D
(1578925463.124250) can0 0CF00300#DD0000FFFFFF5CFF
(1578925463.124800) can0 14FFA000#FCFFFFFFFFFFFFFF
(1578925463.125450) can0 18FEF200#00000000F304FFFF
(1578925463.128550) can0 0CF00421#FFFFFFFFFFFFFFFF
(1578925463.132100) can0 18F00E3D#A00FFFFFFFFFFFFF
(1578925463.132700) can0 18F00F3D#9010FFFFFFFFFFFF
(1578925463.133750) can0 0CF00400#017D7DAD2800F47D
(1578925463.134150) can0 18EAFF90#AFFE00
(1578925463.134700) can0 18FEDF00#850013FF7D5507FF
(1578925463.137000) can0 0C00000B#FCFFFAFAFFFFFFFF
(1578925463.138500) can0 14FDA421#FFFFFFFFFFFFFFFF
(1578925463.139350) can0 10FF2121#72551FD4D0FFFFE1
(1578925463.143700) can0 0CF00400#017D7DAD2800F47D
(1578925463.148150) can0 18FEF117#F3FFFFFFFFFFFFFF
(1578925463.148700) can0 14FEF031#FFFFFFFFFFFC00FF
(1578925463.149250) can0 18FEF34A#DAB04195D70EE84F
(1578925463.149800) can0 14FF2321#010CE1FFFFFFFFFF
(1578925463.153650) can0 0CF00400#017D7D9F2800F47D
(1578925463.154250) can0 18FEF000#FFFFFF0000F000FF
(1578925463.155100) can0 0CFF0281#45037F01D2006100
(1578925463.156750) can0 0CF00A01#A70EF823FFFFFFFF
(1578925463.157350) can0 10F01A01#E08EFFFFFFFFFFFF
(1578925463.158250) can0 0C00100B#FCFFFA00FFFFFFFF
(1578925463.158800) can0 18FEE64A#601809013423837E
(1578925463.159550) can0 14FF0121#FFFFFFFFFFFFFCFF
(1578925463.163550) can0 0C000F0B#FCFFFA00FFFFFFFF
(1578925463.164100) can0 0CF00400#017D7D8A2800F47D
(1578925463.164750) can0 18FEE000#36B8380036B83800
(1578925463.168600) can0 18F0233D#FFFFFFFFFF2BFFFF
(1578925463.169150) can0 0C00290B#FCFFFA00FFFFFFFF
(1578925463.169750) can0 14FF0221#FFFFFFFFFFFFFFFF
(1578925463.174000) can0 0CF00400#017D7D782800F47D
(1578925463.174550) can0 18FEBF0B#A3497D7D6F6EFFFF
(1578925463.175100) can0 0CF00300#DD0000FFFFFF5FFF
(1578925463.175700) can0 18FEF100#C33C491000000030
(1578925463.178450) can0 18E8174A#0100FFFFFFE8FE00
(1578925463.182100) can0 18F00E3D#A00FFFFFFFFFFFFF
(1578925463.182700) can0 18F00F3D#9010FFFFFFFFFFFF
(1578925463.183250) can0 18FD8C3D#17000A00FFFFFFFF
(1578925463.183850) can0 18FDB23D#FFFFCC4F1000FFFF
(1578925463.184400) can0 0CF00400#017D7D6D2800F47D
(1578925463.184950) can0 18FDB300#FFFF6753FFFFFFFF
(1578925463.185600) can0 18FE4F3E#0400FFFFFFFFFFFF
(1578925463.186150) can0 18FDB400#77407740FFFFFFFF
(1578925463.186700) can0 18FEDF00#850013FF7D5307FF
(1578925463.187300) can0 18FEEF00#C1FFFF55FFFFFFFA
(1578925463.188800) can0 14F00031#CFFFFFFFFFFFFFFF
(1578925463.190100) can0 18F0010B#C0FFF0FFFF0DFF3F
(1578925463.190650) can0 10FF2121#72551FD4D0FFFFE1
(1578925463.193350) can0 14FF3131#0430030000FFFFF0
(1578925463.193900) can0 0CF00400#017D7D5F2800F47D
(1578925463.198550) can0 14F00131#FFFFFFFF00FFFFFF
(1578925463.203600) can0 0CF00400#017D7D582800F47D
(1578925463.204200) can0 18F0000F#007DFFFF0F7DFFFF
(1578925463.204850) can0 0CFF0381#0000000000000007
(1578925463.206750) can0 0CF00A01#A70ECD23FFFFFFFF
(1578925463.207350) can0 10F01A01#E48EFFFFFFFFFFFF
(1578925463.207900) can0 10FCFD01#FFFFFFFF532AFFFF
(1578925463.208500) can0 18FD9401#C407FFFFE927E001
(1578925463.209050) can0 14FEF121#F3FFFF1FFFFFFFFF
(1578925463.209650) can0 18FDA101#EB1AFFFFFFFF00FF
(1578925463.210250) can0 10FDA301#FFFFFFFFFFFFFFFF
(1578925463.210800) can0 18FDAA01#FFFFFFFFFFFFFF29
(1578925463.211400) can0 18FDD001#FFFFFF0029FFFFFF
(1578925463.212000) can0 1CFE9201#FF0071FFFFFFFFFF
(1578925463.212550) can0 18FEDB01#502A502A502AFFFF
(1578925463.213700) can0 0CF00400#017D7D512800F47D
(1578925463.214350) can0 18FF3000#0000AFFFFFFFFFFF
(1578925463.218400) can0 18F0233D#FFFFFFFFFF2BFFFF
(1578925463.218950) can0 14FEF131#CFFFFFF300FFFF30
(1578925463.219500) can0 18FD413D#FFFFFFFFFCFCFCFC
(1578925463.223650) can0 0CF00400#017D7D4A2800F47D
(1578925463.224250) can0 0CF00300#DD0000FFFFFF5FFF
(1578925463.224850) can0 14FFA000#FCFFFFFFFFFFFFFF
(1578925463.225450) can0 18FEF200#00000000F304FFFF
(1578925463.228550) can0 0CF00421#FFFFFFFFFFFFFFFF
(1578925463.232100) can0 18F00E3D#A00FFFFFFFFFFFFF
(1578925463.232700) can0 18F00F3D#9010FFFFFFFFFFFF
(1578925463.233750) can0 0CF00400#017D7D4E2800F47D
(1578925463.234350) can0 18FEDF00#850013FF7D5307FF
(1578925463.237100) can0 0C00000B#FCFFFAFAFFFFFFFF
(1578925463.238550) can0 14FDA421#FFFFFFFFFFFFFFFF
(1578925463.239350) can0 10FF2121#72551FD4D0FFFFE1
(1578925463.243650) can0 0CF00400#017D7D4D2800F47D
(1578925463.248100) can0 18FEF117#F3FFFFFFFFFFFFFF
(1578925463.248700) can0 14FEF031#FFFFFFFFFFFC00FF
(1578925463.249250) can0 18E8004A#0100FFFFFFAFFE00
(1578925463.249850) can0 14FF2321#010CE1FFFFFFFFFF
(1578925463.253600) can0 0CF00400#017D7D4E2800F47D
(1578925463.254200) can0 18FEF000#FFFFFF0000F000FF
(1578925463.255000) can0 0CFF0281#43037F01D2006100
(1578925463.256800) can0 0CF00A01#AE0EB823FFFFFFFF
(1578925463.257400) can0 10F01A01#E48EFFFFFFFFFFFF
(1578925463.259350) can0 14FF0121#FFFFFFFFFFFFFCFF
(1578925463.263650) can0 0CF00400#017D7D532800F47D
(1578925463.264250) can0 14FD3E00#C64EFFF04BFFFFFF
(1578925463.264850) can0 18FEE000#36B8380036B83800
(1578925463.268600) can0 18F0233D#FFFFFFFFFF2BFFFF
(1578925463.269600) can0 14FF0221#FFFFFFFFFFFFFFFF
(1578925463.273950) can0 0CF00400#017D7D5F2800F47D
(1578925463.274500) can0 18FEBF0B#33497C7D706FFFFF
(1578925463.275050) can0 0CF00300#DD0000FFFFFF5FFF
(1578925463.275650) can0 18FEF100#C348491000000030
(1578925463.282100) can0 18F00E3D#A00FFFFFFFFFFFFF
(1578925463.282700) can0 18FF01CA#F0FFFFFF044F061A
(1578925463.283250) can0 18F00F3D#9010FFFFFFFFFFFF
(1578925463.283800) can0 18FD8C3D#17000A00FFFFFFFF
(1578925463.284400) can0 0CF00400#017D7D5F2800F47D
(1578925463.284950) can0 18FDB23D#FFFF704F0F00FFFF
(1578925463.285500) can0 18FE4F3E#0400FFFFFFFFFFFF
(1578925463.286100) can0 18FDB300#FFFF6753FFFFFFFF
(1578925463.286700) can0 18FEDF00#850013FF7D4907FF
(1578925463.287250) can0 18FDB400#77407740FFFFFFFF
(1578925463.288700) can0 14F00031#CFFFFFFFFFFFFFFF
(1578925463.290200) can0 18F0010B#C0FFF0FFFF0DFF3F
(1578925463.290750) can0 10FF2121#72551FD4D0FFFFE1
(1578925463.293300) can0 14FF3131#0430030000FFFFF0
(1578925463.293900) can0 0CF00400#017D7D582800F47D
(1578925463.298500) can0 14F00131#FFFFFFFF00FFFFFF
(1578925463.303650) can0 0CF00400#017D7D532800F47D
(1578925463.304250) can0 18F0000F#007DFFFF0F7DFFFF
(1578925463.304800) can0 0CFF0381#0000000000000007
(1578925463.305400) can0 18FEF600#FF003E2AFF7940FF
(1578925463.306750) can0 0CF00A01#AE0EB823FFFFFFFF
(1578925463.307350) can0 10F01A01#E48EFFFFFFFFFFFF
(1578925463.307900) can0 10FCFD01#FFFFFFFF232AFFFF
(1578925463.308500) can0 18FD9401#C407FFFFDB27E001
(1578925463.309100) can0 14FEF121#F3FFFF1FFFFFFFFF
(1578925463.309650) can0 18FDA101#EB1AFFFFFFFF00FF
(1578925463.310250) can0 10FDA301#FFFFFFFFFFFFFFFF
(1578925463.310800) can0 18FDAA01#FFFFFFFFFFFFFF29
(1578925463.311450) can0 18FDD001#FFFFFF0029FFFFFF
(1578925463.312000) can0 1CFE9201#FF0071FFFFFFFFFF
(1578925463.312600) can0 18FEDB01#F329F329F329FFFF
(1578925463.313750) can0 0CF00400#017D7D432800F47D
(1578925463.314350) can0 18FF3000#0000AFFFFFFFFFFF
(1578925463.318400) can0 18F0233D#FFFFFFFFFF2BFFFF
(1578925463.318950) can0 14FEF131#CFFFFFF300FFFF30
(1578925463.319500) can0 18FD413D#FFFFFFFFFCFCFCFC
(1578925463.323650) can0 0CF00400#017D7D372800F47D
(1578925463.324250) can0 0CF00300#DD0000FFFFFF5FFF
(1578925463.324850) can0 14FFA000#FCFFFFFFFFFFFFFF
(1578925463.325450) can0 18FEF200#00000000F304FFFF
(1578925463.328550) can0 0CF00421#FFFFFFFFFFFFFFFF
(1578925463.330600) can0 10FF2121#72551FD0D0FFFFE1
(1578925463.332100) can0 18F00E3D#A00FFFFFFFFFFFFF
(1578925463.332700) can0 18F00F3D#9010FFFFFFFFFFFF
(1578925463.333800) can0 0CF00400#017D7D2A2800F47D
(1578925463.334400) can0 18FEDF00#850013FF7D4907FF
(1578925463.337150) can0 0C00000B#FCFFFAFAFFFFFFFF
(1578925463.338550) can0 14FDA421#FFFFFFFFFFFFFFFF
(1578925463.343650) can0 0CF00400#017D7D182800F47D
(1578925463.348500) can0 18FEF117#F3FFFFFFFFFFFFFF
(1578925463.349100) can0 14FEF031#FFFFFFFFFFFC00FF
(1578925463.349750) can0 10FF2121#72551FD0D0FFFFE1
(1578925463.350850) can0 14FF2321#010CE1FFFFFFFFFF
(1578925463.353650) can0 0CF00400#017D7D0A2800F47D
(1578925463.354200) can0 18FEF000#FFFFFF0000F000FF
(1578925463.354900) can0 0CFF0281#45038001D2006100
(1578925463.356800) can0 0CF00A01#AE0EB823FFFFFFFF
(1578925463.357350) can0 10F01A01#E88EFFFFFFFFFFFF
(1578925463.358400) can0 0C00100B#FCFFFA00FFFFFFFF
(1578925463.359500) can0 14FF0121#FFFFFFFFFFFFFCFF
(1578925463.363700) can0 0CF00400#017D7D062800F47D
(1578925463.364250) can0 0C000F0B#FCFFFA00FFFFFFFF
(1578925463.364850) can0 18FEE000#36B8380036B83800
(1578925463.368600) can0 18F0233D#FFFFFFFFFF2BFFFF
(1578925463.369150) can0 0C00290B#FCFFFA00FFFFFFFF
(1578925463.369750) can0 14FF0221#FFFFFFFFFFFFFFFF
(1578925463.373950) can0 0CF00400#017D7D052800F47D
(1578925463.374500) can0 18FEBF0B#D4487E7C7070FFFF
(1578925463.375050) can0 0CF00300#DD0000FFFFFF5FFF
(1578925463.375650) can0 18FEF100#C3C4481000000030
(1578925463.382100) can0 18F00E3D#A00FFFFFFFFFFFFF
(1578925463.382700) can0 18F00F3D#9010FFFFFFFFFFFF
(1578925463.383250) can0 18FD8C3D#17000A00FFFFFFFF
(1578925463.383850) can0 18FDB23D#FFFF704F0F00FFFF
(1578925463.384400) can0 0CF00400#017D7DFF2700F47D
(1578925463.385000) can0 18FDB300#FFFF6753FFFFFFFF
(1578925463.385550) can0 18FE4F3E#0400FFFFFFFFFFFF
(1578925463.386150) can0 18FDB400#77407740FFFFFFFF
(1578925463.386700) can0 18FEDF00#850013FF7D4507FF
(1578925463.387350) can0 18FECA00#03FF00000000FFFF
(1578925463.388900) can0 14F00031#CFFFFFFFFFFFFFFF
(1578925463.389600) can0 18E00021#FFFFFFFFFFFFFFFF
(1578925463.390250) can0 18F0010B#C0FFF0FFFF0DFF3F
(1578925463.390800) can0 10FF2121#72551FD0D0FFFFE1
(1578925463.393300) can0 14FF3131#0430030000FFFFF0
(1578925463.393900) can0 0CF00400#017D7DFB2700F47D
(1578925463.398500) can0 14F00131#FFFFFFFF00FFFFFF
(1578925463.403650) can0 0CF00400#017D7DF82700F47D
(1578925463.404250) can0 18F0000F#007DFFFF0F7DFFFF
(1578925463.405200) can0 0CFF0381#0000000000000007
(1578925463.406750) can0 0CF00A01#B50E9B23FFFFFFFF
(1578925463.407300) can0 10F01A01#E88EFFFFFFFFFFFF
(1578925463.407950) can0 10FCFD01#FFFFFFFFF329FFFF
(1578925463.408500) can0 18FD9401#C407FFFFDA27E101
(1578925463.409050) can0 10FECA47#00FF00000000FFFF
(1578925463.409650) can0 18FDA101#EB1AFFFFFFFF00FF
(1578925463.410200) can0 14FEF121#F3FFFF1FFFFFFFFF
(1578925463.410800) can0 10FDA301#FFFFFFFFFFFFFFFF
(1578925463.411400) can0 18FDAA01#FFFFFFFFFFFFFF29
(1578925463.411950) can0 18FDD001#FFFFFF0029FFFFFF
(1578925463.412550) can0 1CFE9201#FF0071FFFFFFFFFF
(1578925463.413150) can0 18FEDB01#F329F329F329FFFF
(1578925463.413750) can0 18FD6501#980DFFFFFFFFFFFF
(1578925463.414300) can0 0CF00400#017D7DFF2700F47D
(1578925463.414900) can0 18FF3000#0000AFFFFFFFFFFF
(1578925463.416550) can0 18FECA0B#00FF00000000FFFF
(1578925463.418350) can0 18F0233D#FFFFFFFFFF2BFFFF
(1578925463.418950) can0 10FECA31#00FF00000000FFFF
(1578925463.419550) can0 18FD413D#FFFFFFFFFCFCFCFC
(1578925463.420100) can0 14FEF131#CFFFFFF300FFFF30
(1578925463.423700) can0 0CF00400#017D7D032800F47D
(1578925463.424250) can0 0CF00300#DD0000FFFFFF5FFF
(1578925463.424850) can0 14FFA000#FCFFFFFFFFFFFFFF
(1578925463.425500) can0 18FEF200#00000000F304FFFF
(1578925463.428550) can0 0CF00421#FFFFFFFFFFFFFFFF
(1578925463.429300) can0 10FECA21#00FF00000000FFFF
(1578925463.432100) can0 18F00E3D#A00FFFFFFFFFFFFF
(1578925463.432700) can0 18F00F3D#9010FFFFFFFFFFFF
(1578925463.433800) can0 0CF00400#017D7D032800F47D
(1578925463.434400) can0 18FEDF00#850013FF7D4507FF
(1578925463.437250) can0 0C00000B#FCFFFAFAFFFFFFFF
(1578925463.438550) can0 14FDA421#FFFFFFFFFFFFFFFF
(1578925463.439400) can0 1CFEC347#FFFFFFFFFFFFFFFF
(1578925463.440050) can0 10FF2121#72551FD0D0FFFFE1
(1578925463.443700) can0 0CF00400#017D7DFC2700F47D
(1578925463.448100) can0 18FEF117#F3FFFFFFFFFFFFFF
(1578925463.448700) can0 14FEF031#FFFFFFFFFFFC00FF
(1578925463.449450) can0 14FF2321#010CE1FFFFFFFFFF
(1578925463.453600) can0 0CF00400#017D7DF32700F47D
(1578925463.454200) can0 18FEF000#FFFFFF0000F000FF
(1578925463.454850) can0 0CFF0281#45038001D2006100
(1578925463.456750) can0 0CF00A01#BC0E9423FFFFFFFF
(1578925463.457350) can0 10F01A01#EC8EFFFFFFFFFFFF
(1578925463.458550) can0 18FF2421#8CF0FFFFFFFFFFFF
(1578925463.459450) can0 14FF0121#FFFFFFFFFFFFFCFF
(1578925463.463700) can0 0CF00400#017D7DED2700F47D
(1578925463.464250) can0 18FEE000#36B8380036B83800
(1578925463.468550) can0 10FECA25#00FF00000000FFFF
(1578925463.469100) can0 18F0233D#FFFFFFFFFF2BFFFF
(1578925463.469650) can0 14FF0221#FFFFFFFFFFFFFFFF
(1578925463.473950) can0 0CF00400#017D7DE02700F47D
(1578925463.474500) can0 18FEBF0B#72487D7D706FFFFF
(1578925463.475050) can0 0CF00300#DD0000FFFFFF5FFF
(1578925463.475700) can0 18FEF100#C32E481000000030
(1578925463.478500) can0 18FEF521#FFFFFF8022FFFFFF
(1578925463.482100) can0 18F00E3D#A00FFFFFFFFFFFFF
(1578925463.482700) can0 18F00F3D#9010FFFFFFFFFFFF
(1578925463.483300) can0 18FD8C3D#17000A00FFFFFFFF
(1578925463.483850) can0 18FDB23D#FFFF704F0F00FFFF
(1578925463.484400) can0 0CF00400#017D7DD12700F47D
(1578925463.485000) can0 18FDB300#FFFF6753FFFFFFFF
(1578925463.485550) can0 18FE4F3E#0400FFFFFFFFFFFF
(1578925463.486150) can0 18FDB400#77407740FFFFFFFF
(1578925463.486700) can0 18FEDF00#850013FF7D4707FF
(1578925463.488800) can0 14F00031#CFFFFFFFFFFFFFFF
(1578925463.490350) can0 18F0010B#C0FFF0FFFF0DFF3F
(1578925463.490900) can0 10FF2121#72551FD0D0FFFFE1
(1578925463.493400) can0 14FF3131#0430030000FFFFF0
(1578925463.493950) can0 0CF00400#017D7DC32700F47D
(1578925463.498500) can0 14F00131#FFFFFFFF00FFFFFF
(1578925463.503650) can0 0CF00400#017D7DBB2700F47D
(1578925463.504200) can0 18F0000F#007DFFFF0F7DFFFF
(1578925463.504800) can0 0CFF0381#0000000000000007
(1578925463.506750) can0 0CF00A01#BC0E7723FFFFFFFF
(1578925463.507350) can0 10F01A01#EC8EFFFFFFFFFFFF
(1578925463.507950) can0 10FCFD01#FFFFFFFFCC29FFFF
(1578925463.508500) can0 18FD9401#C407FFFFCA27E201
(1578925463.509050) can0 14FEF121#F3FFFF1FFFFFFFFF
(1578925463.509650) can0 18FDA101#F61AFFFFFFFF00FF
(1578925463.510200) can0 10FDA301#FFFFFFFFFFFFFFFF
(1578925463.510850) can0 18FDAA01#FFFFFFFFFFFFFF29
(1578925463.511400) can0 18FDD001#FFFFFF0029FFFFFF
(1578925463.512000) can0 1CFE9201#FF0071FFFFFFFFFF
(1578925463.512550) can0 18FEDB01#F329F329F329FFFF
(1578925463.513750) can0 0CF00400#017D7DB42700F47D
(1578925463.514350) can0 18FF3000#0000AFFFFFFFFFFF
(1578925463.518350) can0 18F0233D#FFFFFFFFFF2BFFFF
(1578925463.518950) can0 14FEF131#CFFFFFF300FFFF30
(1578925463.519550) can0 18FD413D#FFFFFFFFFCFCFCFC
(1578925463.523650) can0 0CF00400#017D7DA62700F47D
(1578925463.524250) can0 0CF00300#DD0000FFFFFF5FFF
(1578925463.524850) can0 14FFA000#FCFFFFFFFFFFFFFF
(1578925463.525450) can0 18FEF200#00000000F304FFFF
(1578925463.528550) can0 0CF00421#FFFFFFFFFFFFFFFF
(1578925463.532100) can0 18F00E3D#A00FFFFFFFFFFFFF
(1578925463.532700) can0 18F00F3D#9010FFFFFFFFFFFF
(1578925463.533800) can0 0CF00400#017D7DA02700F47D
(1578925463.534350) can0 18FEDF00#850013FF7D4707FF
(1578925463.537300) can0 0C00000B#FCFFFAFAFFFFFFFF
(1578925463.538550) can0 14FDA421#FFFFFFFFFFFFFFFF
(1578925463.539450) can0 10FF2121#72551FD0D0FFFFE1
(1578925463.543650) can0 0CF00400#017D7D982700F47D
(1578925463.548100) can0 18FEF117#F3FFFFFFFFFFFFFF
(1578925463.548700) can0 14FEF031#FFFFFFFFFFFC00FF
(1578925463.549550) can0 14FF2321#010CE1FFFFFFFFFF
(1578925463.553600) can0 0CF00400#017D7D982700F47D
(1578925463.554250) can0 18FEF000#FFFFFF0000F000FF
(1578925463.554800) can0 0CFF0281#45038101D2006100
(1578925463.556950) can0 0CF00A01#BC0E7023FFFFFFFF
(1578925463.557550) can0 10F01A01#EC8EFFFFFFFFFFFF
(1578925463.558550) can0 0C00100B#FCFFFA00FFFFFFFF
(1578925463.559100) can0 18FEF621#FFFFFFFFFFFFFFFF
(1578925463.559800) can0 14FF0121#FFFFFFFFFFFFFCFF
(1578925463.563700) can0 0CF00400#017D7D9C2700F47D
(1578925463.564250) can0 0C000F0B#FCFFFA00FFFFFFFF
(1578925463.564850) can0 18FEE000#36B8380036B83800
(1578925463.568600) can0 18FEF721#FFFFFFFF1A01FFFF
(1578925463.569150) can0 0C00290B#FCFFFA00FFFFFFFF
(1578925463.569750) can0 14FF0221#FFFFFFFFFFFFFFFF
(1578925463.570300) can0 18F0233D#FFFFFFFFFF2BFFFF
(1578925463.573950) can0 0CF00400#017D7DA02700F47D
(1578925463.574500) can0 18FEBF0B#E4477D7C7070FFFF
(1578925463.575100) can0 0CF00300#DD0000FFFFFF5FFF
(1578925463.575700) can0 18FEF100#C31A481000000030
(1578925463.578550) can0 18E00031#FFFFFFFFFFF3FFFF
(1578925463.582100) can0 18F00E3D#A00FFFFFFFFFFFFF
(1578925463.582700) can0 18F00F3D#9010FFFFFFFFFFFF
(1578925463.583300) can0 18FD8C3D#17000A00FFFFFFFF
(1578925463.583850) can0 18FDB23D#FFFF704F0F00FFFF
(1578925463.584400) can0 0CF00400#017D7DA52700F47D
(1578925463.585000) can0 18FDB300#FFFF6753FFFFFFFF
(1578925463.585550) can0 18FE4F3E#0400FFFFFFFFFFFF
(1578925463.586150) can0 18FDB400#77407740FFFFFFFF
(1578925463.586700) can0 18FEDF00#850013FF7D3C07FF
(1578925463.588700) can0 14F00031#CFFFFFFFFFFFFFFF
(1578925463.590400) can0 18F0010B#C0FFF0FFFF0DFF3F
(1578925463.590950) can0 10FF2121#72551FD0D0FFFFE1
(1578925463.593300) can0 14FF3131#0430030000FFFFF0
(1578925463.593850) can0 0CF00400#017D7DA32700F47D
(1578925463.595200) can0 18FF1919#01030A02FFFFFFFF
(1578925463.598600) can0 14F00131#FFFFFFFF00FFFFFF
(1578925463.600050) can0 18FF1B19#FFFCFFFFFFFFFFFF
(1578925463.603650) can0 0CF00400#017D7DA62700F47D
(1578925463.604250) can0 18F0000F#007DFFFF0F7DFFFF
(1578925463.604850) can0 0CFF0381#0000000000000007
(1578925463.605450) can0 18E00019#00FFFFFFFFFFFFFF
(1578925463.606800) can0 0CF00A01#CB0E5323FFFFFFFF
(1578925463.607350) can0 10F01A01#F08EFFFFFFFFFFFF
(1578925463.607950) can0 10FCFD01#FFFFFFFF7029FFFF
(1578925463.608500) can0 14FEF121#F3FFFF1FFFFFFFFF
(1578925463.609100) can0 18FD9401#C407FFFFBF27E301
(1578925463.609700) can0 18FDA101#021BFFFFFFFF00FF
(1578925463.610300) can0 10FDA301#FFFFFFFFFFFFFFFF
(1578925463.610850) can0 18FEF719#FFFFFFFFFFFF1A01
(1578925463.611450) can0 18FDAA01#FFFFFFFFFFFFFF2A
(1578925463.612050) can0 18FDD001#FFFFFF0029FFFFFF
(1578925463.612650) can0 1CFE9201#FF0071FFFFFFFFFF
(1578925463.613200) can0 18FEDB01#F329F329F329FFFF
(1578925463.613750) can0 0CF00400#017D7D9F2700F47D
(1578925463.614400) can0 18FF3000#0000AFFFFFFFFFFF
(1578925463.618400) can0 18F0233D#FFFFFFFFFF2BFFFF
(1578925463.618950) can0 14FEF131#CFFFFFF300FFFF30
(1578925463.619500) can0 18FD413D#FFFFFFFFFCFCFCFC
(1578925463.623650) can0 0CF00400#017D7D8D2700F47D
(1578925463.624250) can0 0CF00300#DD0000FFFFFF5FFF
(1578925463.624850) can0 14FFA000#FCFFFFFFFFFFFFFF
(1578925463.625450) can0 18FEF200#00000000F304FFFF
(1578925463.628550) can0 0CF00421#FFFFFFFFFFFFFFFF
(1578925463.632100) can0 18F00E3D#A00FFFFFFFFFFFFF
(1578925463.632700) can0 18F00F3D#9010FFFFFFFFFFFF
(1578925463.633800) can0 0CF00400#017D7D7C2700F47D
(1578925463.634350) can0 18FEDF00#840013FF7D3C07FF
(1578925463.637350) can0 0C00000B#FCFFFAFAFFFFFFFF
(1578925463.638650) can0 14FDA421#FFFFFFFFFFFFFFFF
(1578925463.639500) can0 10FF2121#72551FD0D0FFFFE1
(1578925463.643650) can0 0CF00400#017D7D6E2700F47D
(1578925463.648450) can0 18FEF117#F3FFFFFFFFFFFFFF
(1578925463.649000) can0 14FEF031#FFFFFFFFFFFC00FF
(1578925463.649700) can0 14FF2321#010CE1FFFFFFFFFF
(1578925463.653600) can0 0CF00400#017D7D662700F47D
(1578925463.654200) can0 18FEF000#FFFFFF0000F000FF
(1578925463.654800) can0 0CFF0281#45038101D2006100
(1578925463.655350) can0 0CFF0181#7502050000008000
(1578925463.656750) can0 0CF00A01#CB0E5323FFFFFFFF
(1578925463.657350) can0 10F01A01#F08EFFFFFFFFFFFF
(1578925463.660750) can0 14FF0121#FFFFFFFFFFFFFCFF
(1578925463.663700) can0 0CF00400#017D7D5C2700F47D
(1578925463.664300) can0 18FEE000#36B8380036B83800
(1578925463.668600) can0 18F0233D#FFFFFFFFFF2BFFFF
(1578925463.669600) can0 14FF0221#FFFFFFFFFFFFFFFF
(1578925463.674100) can0 0CF00400#017D7D572700F47D
(1578925463.674650) can0 18FEBF0B#A6477D7C6E6EFFFF
(1578925463.675200) can0 1CECFF0F#20130003FFE1FE00
(1578925463.675800) can0 0CF00300#DD0000FFFFFF5FFF
(1578925463.676400) can0 18FEF100#C350471000000030
(1578925463.677050) can0 18FDE000#FFFFFFFFD022FFFF
(1578925463.682150) can0 18F00E3D#A00FFFFFFFFFFFFF
(1578925463.682700) can0 18F00F3D#9010FFFFFFFFFFFF
(1578925463.683300) can0 18FD8C3D#17000A00FFFFFFFF
(1578925463.683850) can0 18FDB23D#FFFF704F0F00FFFF
(1578925463.684400) can0 0CF00400#017D7D4E2700F47D
(1578925463.685000) can0 18FDB300#FFFF6753FFFFFFFF
(1578925463.685600) can0 18FE4F3E#0400FFFFFFFFFFFF
(1578925463.686150) can0 18FDB400#77407740FFFFFFFF
(1578925463.686700) can0 1CECFF00#20270006FFE3FE00
(1578925463.687300) can0 18FEDF00#840013FF7D3C07FF
(1578925463.687900) can0 18FEEF00#C1FFFF52FFFFFFFA
(1578925463.689100) can0 14F00031#CFFFFFFFFFFFFFFF
(1578925463.690450) can0 18F0010B#C0FFF0FFFF0DFF3F
(1578925463.691000) can0 10FF2121#72551FD0D0FFFFE1
(1578925463.693350) can0 14FF3131#0430030000FFFFF0
(1578925463.693900) can0 0CF00400#017D7D462700F47D
(1578925463.694500) can0 18FCDC00#E0FEFEFFFFFFFFFF
(1578925463.698500) can0 14F00131#FFFFFFFF00FFFFFF
(1578925463.703650) can0 0CF00400#017D7D492700F47D
(1578925463.704250) can0 18F0000F#007DFFFF0F7DFFFF
(1578925463.704850) can0 0CFF0381#0000000000000007
(1578925463.706750) can0 0CF00A01#CB0E3623FFFFFFFF
(1578925463.707350) can0 10F01A01#F08EFFFFFFFFFFFF
(1578925463.707900) can0 10FCFD01#FFFFFFFF3929FFFF
(1578925463.708550) can0 18FD9401#C407FFFFB027E401
(1578925463.709100) can0 14FEF121#F3FFFF1FFFFFFFFF
(1578925463.709700) can0 18FDA101#021BFFFFFFFF00FF
(1578925463.710250) can0 10FF2121#72551FD4D0FFFFE1
(1578925463.710800) can0 10FDA301#FFFFFFFFFFFFFFFF
(1578925463.711450) can0 18FDAA01#FFFFFFFFFFFFFF2A
(1578925463.712000) can0 18FDD001#FFFFFF0029FFFFFF
(1578925463.712600) can0 1CFE9201#FF0071FFFFFFFFFF
(1578925463.713150) can0 18FEDB01#F329F329F329FFFF
(1578925463.713800) can0 0CF00400#017D7D462700F47D
(1578925463.714400) can0 18FF3000#0000AFFFFFFFFFFF
(1578925463.718400) can0 18F0233D#FFFFFFFFFF2BFFFF
(1578925463.718950) can0 14FEF131#CFFFFFF300FFFF30
(1578925463.719550) can0 18FD413D#FFFFFFFFFCFCFCFC
(1578925463.720900) can0 18A9FE31#FFFFFFFFFFFFFFFF
(1578925463.723700) can0 0CF00400#017D7D492700F47D
(1578925463.724250) can0 1CEBFF00#010013B98033DA20
(1578925463.724850) can0 0CF00300#DD0000FFFFFF5FFF
(1578925463.725450) can0 14FFA000#FCFFFFFFFFFFFFFF
(1578925463.726050) can0 18FEF200#00000000F304FFFF
(1578925463.726700) can0 18FEF500#CBFFFFFFFF3EFFFF
(1578925463.728600) can0 0CF00421#FFFFFFFFFFFFFFFF
(1578925463.732100) can0 18F00E3D#A00FFFFFFFFFFFFF
(1578925463.732700) can0 18F00F3D#9010FFFFFFFFFFFF
(1578925463.733850) can0 0CF00400#017D7D4E2700F47D
(1578925463.734400) can0 18FEDF00#840013FF7D3C07FF
(1578925463.737450) can0 0C00000B#FCFFFAFAFFFFFFFF
(1578925463.738700) can0 14FDA421#FFFFFFFFFFFFFFFF
(1578925463.739450) can0 10FF2121#72551FD4D0FFFFE1
(1578925463.743700) can0 0CF00400#017D7D572700F47D
(1578925463.744250) can0 1CEBFF0F#01030360224A804D
(1578925463.744850) can0 18FEEE00#8049A02EFFFF3EFF
(1578925463.748550) can0 14FEF031#FFFFFFFFFFFC00FF
(1578925463.749300) can0 18FEF117#F3FFFFFFFFFFFFFF
(1578925463.749850) can0 14FF2321#010CE1FFFFFFFFFF
(1578925463.753650) can0 0CF00400#017D7D542700F47D
(1578925463.754250) can0 18FEF000#FFFFFF0000F000FF
(1578925463.754800) can0 0CFF0281#45037E01D2006100
(1578925463.755350) can0 18FEA400#FFFFFFFFD77D2022
(1578925463.757000) can0 0CF00A01#D20E2F23FFFFFFFF
(1578925463.757550) can0 10F01A01#F48EFFFFFFFFFFFF
(1578925463.758650) can0 0C00100B#FCFFFA00FFFFFFFF
(1578925463.760800) can0 14FF0121#FFFFFFFFFFFFFCFF
(1578925463.763750) can0 0CF00400#017D7D492700F47D
(1578925463.764300) can0 0C000F0B#FCFFFA00FFFFFFFF
(1578925463.764850) can0 14FD3E00#B64EFFE64BFFFFFF
(1578925463.765450) can0 18FEE000#36B8380036B83800
(1578925463.768600) can0 18F0233D#FFFFFFFFFF2BFFFF
(1578925463.769300) can0 0C00290B#FCFFFA00FFFFFFFF
(1578925463.769850) can0 14FF0221#FFFFFFFFFFFFFFFF
(1578925463.773950) can0 0CF00400#017D7D3B2700F47D
(1578925463.774500) can0 1CEBFF00#021BC7C026E1602B
(1578925463.775050) can0 18FEBF0B#44477D7D7070FFFF
(1578925463.775650) can0 0CF00300#DD0000FFFFFF5FFF
(1578925463.776200) can0 18FEF100#C3EC461000000030
(1578925463.776800) can0 18FEBD00#00F00000FFFFFFFF
(1578925463.782150) can0 18F00E3D#A00FFFFFFFFFFFFF
(1578925463.782700) can0 18FF01CA#F0FFFFFF044F061A
(1578925463.783250) can0 18F00F3D#9010FFFFFFFFFFFF
(1578925463.783850) can0 18FD8C3D#16000A00FFFFFFFF
(1578925463.784400) can0 0CF00400#017D7D252700F47D
(1578925463.784950) can0 18FDB23D#FFFFCC4F0F00FFFF
(1578925463.785550) can0 18FE4F3E#0400FFFFFFFFFFFF
(1578925463.786150) can0 18FDB300#FFFF6753FFFFFFFF
(1578925463.786700) can0 18FEDF00#840013FF7D3707FF
(1578925463.787250) can0 18FDB400#77407740FFFFFFFF
(1578925463.787850) can0 18FF7400#D600FFFFFFFCFFFF
(1578925463.788900) can0 14F00031#CFFFFFFFFFFFFFFF
(1578925463.790550) can0 18F0010B#C0FFF0FFFF0DFF3F
(1578925463.791100) can0 10FF2121#72551FD4D0FFFFE1
(1578925463.793350) can0 14FF3131#0430030000FFFFF0
(1578925463.793900) can0 0CF00400#017D7D132700F47D
(1578925463.794450) can0 1CEBFF0F#0227282D2BB8421D
(1578925463.795050) can0 18FD7C00#F8F7C07431FFE3FF
(1578925463.798500) can0 14F00131#FFFFFFFF00FFFFFF
(1578925463.803650) can0 0CF00400#017D7D062700F47D
(1578925463.804250) can0 18F0000F#007DFFFF0F7DFFFF
(1578925463.804850) can0 0CFF0381#0000000000000007
(1578925463.805400) can0 18FEF600#FF003E2AFF7940FF
(1578925463.806000) can0 18FEE400#007FFFFC007FFFFF
(1578925463.807000) can0 0CF00A01#D90E0B23FFFFFFFF
(1578925463.807550) can0 10F01A01#F48EFFFFFFFFFFFF
(1578925463.808150) can0 10FCFD01#FFFFFFFF1929FFFF
(1578925463.808700) can0 18FD9401#C407FFFFAD27E401
(1578925463.809300) can0 14FEF121#F3FFFF1FFFFFFFFF
(1578925463.809900) can0 18FDA101#0D1BFFFFFFFF00FF
(1578925463.810450) can0 10FDA301#FFFFFFFFFFFFFFFF
(1578925463.811050) can0 18FDAA01#FFFFFFFFFFFFFF2A
(1578925463.811650) can0 18FDD001#FFFFFF002AFFFFFF
(1578925463.812250) can0 1CFE9201#FF0071FFFFFFFFFF
(1578925463.812800) can0 18FEDB01#092909290929FFFF
(1578925463.813800) can0 0CF00400#017D7DF82600F47D
(1578925463.814400) can0 18FF3000#0000AFFFFFFFFFFF
(1578925463.818400) can0 18F0233D#FFFFFFFFFF2BFFFF
(1578925463.818950) can0 14FEF131#CFFFFFF300FFFF30
(1578925463.819500) can0 18FD413D#FFFFFFFFFCFCFCFC
(1578925463.823650) can0 0CF00400#017D7DEE2600F47D
(1578925463.824250) can0 1CEBFF00#03E19935FFFF8309
(1578925463.824850) can0 0CF00300#DD0000FFFFFF5FFF
(1578925463.825450) can0 14FFA000#FCFFFFFFFFFFFFFF
(1578925463.826050) can0 18FEF200#00000000F304FFFF
(1578925463.828600) can0 0CF00421#FFFFFFFFFFFFFFFF
(1578925463.832100) can0 18F00E3D#A00FFFFFFFFFFFFF
(1578925463.832700) can0 18F00F3D#9010FFFFFFFFFFFF
(1578925463.833750) can0 0CF00400#017D7DED2600F47D
(1578925463.834400) can0 18FEDF00#840013FF7D3707FF
(1578925463.834950) can0 18FE5600#B83FFFFF1F1F00FF
(1578925463.837500) can0 0C00000B#FCFFFAFAFFFFFFFF
(1578925463.838700) can0 14FDA421#FFFFFFFFFFFFFFFF
(1578925463.840900) can0 10FF2121#72551FD4D0FFFFE1
(1578925463.843700) can0 0CF00400#017D7DED2600F47D
(1578925463.844250) can0 1CEBFF0F#03603B5D0419FFFF
(1578925463.844900) can0 18FEC100#3EFD89053EFD8905
(1578925463.848500) can0 14FEF031#FFFFFFFFFFFC00FF
(1578925463.849100) can0 18FEF117#F3FFFFFFFFFFFFFF
(1578925463.850600) can0 14FF2321#010CE1FFFFFFFFFF
(1578925463.853650) can0 0CF00400#017D7DE52600F47D
(1578925463.854250) can0 18FEF000#FFFFFF0000F000FF
(1578925463.854800) can0 0CFF0281#45037F01D2006100
(1578925463.855400) can0 18FEF700#FFFFFFFF1A011A01
(1578925463.856800) can0 0CF00A01#E00E0423FFFFFFFF
(1578925463.857350) can0 10F01A01#F48EFFFFFFFFFFFF
(1578925463.860850) can0 14FF0121#FFFFFFFFFFFFFCFF
(1578925463.863750) can0 0CF00400#017D7DDF2600F47D
(1578925463.864300) can0 18FEE000#36B8380036B83800
(1578925463.864950) can0 18FEFF00#FCFFFFFFFFFFFFFF
(1578925463.868600) can0 18F0233D#FFFFFFFFFF2BFFFF
(1578925463.869650) can0 14FF0221#FFFFFFFFFFFFFFFF
(1578925463.873950) can0 0CF00400#017D7DDF2600F47D
(1578925463.874550) can0 1CEBFF00#04804D32FFFFFFFF
(1578925463.875100) can0 18FEBF0B#B1467D7C7271FFFF
(1578925463.875650) can0 0CF00300#DD0000FFFFFF5FFF
(1578925463.876250) can0 18FEF100#C3A0461000000030
(1578925463.882100) can0 18F00E3D#A00FFFFFFFFFFFFF
(1578925463.882700) can0 18F00F3D#9010FFFFFFFFFFFF
(1578925463.883300) can0 18FECA3D#03FF00000000FFFF
(1578925463.883900) can0 18FD8C3D#16000A00FFFFFFFF
(1578925463.884450) can0 0CF00400#017D7DE02600F47D
(1578925463.885000) can0 18FDB23D#FFFFCC4F0F00FFFF
(1578925463.885600) can0 18FE4F3E#0400FFFFFFFFFFFF
(1578925463.886150) can0 18FDB300#FFFF6753FFFFFFFF
(1578925463.886750) can0 18FEDF00#840013FF7D2A07FF
(1578925463.887300) can0 18FDB400#77407740FFFFFFFF
(1578925463.887900) can0 18FFA63D#00FF00000000FFFF
(1578925463.888950) can0 14F00031#CFFFFFFFFFFFFFFF
(1578925463.890600) can0 18F0010B#C0FFF0FFFF0DFF3F
(1578925463.891150) can0 10FF2121#72551FD4D0FFFFE1
(1578925463.893350) can0 14FF3131#0430030000FFFFF0
(1578925463.893900) can0 0CF00400#017D7DE62600F47D
(1578925463.898550) can0 14F00131#FFFFFFFF00FFFFFF
(1578925463.903650) can0 0CF00400#017D7DE92600F47D
(1578925463.904250) can0 0CFF0381#0000000000000007
(1578925463.904800) can0 18F0000F#007DFFFF0F7DFFFF
(1578925463.906800) can0 0CF00A01#E00EE022FFFFFFFF
(1578925463.907400) can0 10F01A01#F88EFFFFFFFFFFFF
(1578925463.907950) can0 18FECA01#03FF00000000FFFF
(1578925463.908550) can0 14FEF121#F3FFFF1FFFFFFFFF
(1578925463.909100) can0 10FCFD01#FFFFFFFFD328FFFF
(1578925463.909650) can0 18FD9401#C407FFFF9D27E501
(1578925463.910250) can0 18FDA101#0D1BFFFFFFFF00FF
(1578925463.910850) can0 10FDA301#FFFFFFFFFFFFFFFF
(1578925463.911450) can0 18FDAA01#FFFFFFFFFFFFFF2A
(1578925463.912050) can0 18FD9B3D#FFFFFFFFFFFFFFFF
(1578925463.912650) can0 18FDD001#FFFFFF002AFFFFFF
(1578925463.913250) can0 1CFE9201#FF0071FFFFFFFFFF
(1578925463.913800) can0 18FEDB01#092909290929FFFF
(1578925463.914400) can0 18FD6501#C70DFFFFFFFFFFFF
(1578925463.915000) can0 0CF00400#017D7DE62600F47D
(1578925463.915550) can0 18FD6601#FF7EFFFFFFFFFFFF
(1578925463.916150) can0 18FF3000#0000AFFFFFFFFFFF
(1578925463.916700) can0 18FE6901#D8241F2DFFFFDB22
(1578925463.917300) can0 18FE9701#FFFFFFFFFFFFFFFF
(1578925463.917900) can0 18FE9801#6027FFFFFFFFFFFF
(1578925463.918500) can0 18FE9901#007DFFFFFFFFFFFF
(1578925463.919050) can0 14FEF131#CFFFFFF300FFFF30
(1578925463.919600) can0 18FE9A01#201DFFFFFFFFFFFF
(1578925463.920200) can0 18FEDD01#FF501BFFFFFFFFFF
(1578925463.920800) can0 18FFAA01#0000492BD37E9569
(1578925463.921350) can0 18FFAB01#AC17009E7DE4F401
(1578925463.921900) can0 18FFAC01#00B019195700F0FF
(1578925463.922500) can0 18FFAD01#0CE4FFFFFFFFFFFF
(1578925463.923100) can0 18FFAE01#00FF00000000FFFF
(1578925463.923700) can0 18F0233D#FFFFFFFFFF2BFFFF
(1578925463.924250) can0 0CF00400#017D7DDF2600F47D
(1578925463.924850) can0 18FD413D#FFFFFFFFFCFCFCFC
(1578925463.925400) can0 1CEBFF00#05FFFF0401FFFFFF
(1578925463.926000) can0 0CF00300#DD0000FFFFFF5FFF
(1578925463.926600) can0 14FFA000#FCFFFFFFFFFFFFFF
(1578925463.927200) can0 18FEF200#00000000F304FFFF
(1578925463.928600) can0 18FFA53D#000A6D1BF94BC74E
(1578925463.929200) can0 0CF00421#FFFFFFFFFFFFFFFF
(1578925463.932100) can0 18F00E3D#A00FFFFFFFFFFFFF
(1578925463.932700) can0 18F00F3D#9010FFFFFFFFFFFF
(1578925463.933800) can0 0CF00400#017D7DD22600F47D
(1578925463.934400) can0 18FEDF00#840013FF7D2A07FF
(1578925463.937550) can0 0C00000B#FCFFFAFAFFFFFFFF
(1578925463.938800) can0 14FDA421#FFFFFFFFFFFFFFFF
(1578925463.940750) can0 10FF2121#72551FD4D0FFFFE1
(1578925463.943700) can0 0CF00400#017D7DC62600F47D
(1578925463.948550) can0 18FEF117#F3FFFFFFFFFFFFFF
(1578925463.949150) can0 14FEF031#FFFFFFFFFFFC00FF
(1578925463.949850) can0 14FF2321#010CE1FFFFFFFFFF
(1578925463.953650) can0 0CF00400#017D7DB42600F47D
(1578925463.954250) can0 18FEF000#FFFFFF0000F000FF
(1578925463.954800) can0 0CFF0281#45037F01D2006100
(1578925463.956800) can0 0CF00A01#E00ED822FFFFFFFF
(1578925463.957350) can0 10F01A01#F88EFFFFFFFFFFFF
(1578925463.958600) can0 18FF2421#8CF0FFFFFFFFFFFF
(1578925463.959150) can0 0C00100B#FCFFFA00FFFFFFFF
(1578925463.960800) can0 14FF0121#FFFFFFFFFFFFFCFF
(1578925463.963750) can0 0CF00400#017D7DA02600F47D
(1578925463.964300) can0 0C000F0B#FCFFFA00FFFFFFFF
(1578925463.964850) can0 18FEE000#36B8380036B83800
(1578925463.968650) can0 18F0233D#FFFFFFFFFF2BFFFF
(1578925463.969400) can0 0C00290B#FCFFFA00FFFFFFFF
(1578925463.970000) can0 14FF0221#FFFFFFFFFFFFFFFF
(1578925463.973950) can0 0CF00400#017D7D942600F47D
(1578925463.974600) can0 1CEBFF00#06FFFFFFFFFFFFFF
(1578925463.975150) can0 18FEBF0B#20467E7B736FFFFF
(1578925463.975700) can0 0CF00300#DD0000FFFFFF61FF
(1578925463.976300) can0 18FEF100#C304461000000030
(1578925463.976900) can0 18FD0700#0300003FFCFFFFFF
(1578925463.978850) can0 18FD3C3D#0409FFFFFFFDFFFF
(1578925463.982100) can0 18F00E3D#A00FFFFFFFFFFFFF
(1578925463.982700) can0 18F00F3D#9010FFFFFFFFFFFF
(1578925463.983300) can0 18FD8C3D#16000A00FFFFFFFF
(1578925463.983850) can0 18FDB23D#FFFFCC4F0F00FFFF
(1578925463.984400) can0 0CF00400#017D7D8D2600F47D
(1578925463.985000) can0 18FDB300#FFFF6753FFFFFFFF
(1578925463.985550) can0 18FE4F3E#0400FFFFFFFFFFFF
(1578925463.986150) can0 18FDB400#77407740FFFFFFFF
(1578925463.986700) can0 18FEDF00#840013FF7D2607FF
(1578925463.988650) can0 14F00031#CFFFFFFFFFFFFFFF
(1578925463.990650) can0 18F0010B#C0FFF0FFFF0DFF3F
(1578925463.991550) can0 10FF2121#72551FD4D0FFFFE1
(1578925463.993300) can0 14FF3131#0430030000FFFFF0
(1578925463.993900) can0 0CF00400#017D7D892600F47D
(1578925463.998500) can0 14F00131#FFFFFFFF00FFFFFF
(1578925463.999100) can0 18FFA33D#0000EF058010FFFF
(1578925464.003700) can0 0CF00400#017D7D802600F47D
(1578925464.004300) can0 0CFF0381#0000000000000007
(1578925464.004900) can0 18F0000F#007DFFFF0F7DFFFF
(1578925464.007050) can0 0CF00A01#E80ED122FFFFFFFF
(1578925464.007650) can0 10F01A01#FC8EFFFFFFFFFFFF
(1578925464.008200) can0 10FCFD01#FFFFFFFF8928FFFF
(1578925464.008800) can0 14FEF121#F3FFFF1FFFFFFFFF
(1578925464.009350) can0 18FD9401#C407FFFF8927E701
(1578925464.009950) can0 18FDA101#191BFFFFFFFF00FF
(1578925464.010550) can0 10FDA301#FFFFFFFFFFFFFFFF
(1578925464.011150) can0 18FDAA01#FFFFFFFFFFFFFF2A
(1578925464.011700) can0 18FFA43D#640070000000FDFF
(1578925464.012300) can0 18FDD001#FFFFFF002AFFFFFF
(1578925464.012900) can0 1CFE9201#FF0071FFFFFFFFFF
(1578925464.013450) can0 18FEDB01#092909290929FFFF
(1578925464.014050) can0 0CF00400#017D7D7F2600F47D
(1578925464.014650) can0 18FF3000#0000AFFFFFFFFFFF
(1578925464.018450) can0 18F0233D#FFFFFFFFFF2BFFFF
(1578925464.019000) can0 14FEF131#CFFFFFF300FFFF30
(1578925464.019550) can0 18FD413D#FFFFFFFFFCFCFCFC
(1578925464.020100) can0 18FFA23D#0000CE1CEA26BE0F
(1578925464.023750) can0 0CF00400#017D7D782600F47D
(1578925464.024300) can0 0CF00300#DD0000FFFFFF61FF
(1578925464.024950) can0 14FFA000#FCFFFFFFFFFFFFFF
(1578925464.025550) can0 18FEF200#00000000F304FFFF
(1578925464.028650) can0 0CF00421#FFFFFFFFFFFFFFFF
(1578925464.029200) can0 18FFA03D#29502F001F001DFF
(1578925464.032150) can0 18F00E3D#A00FFFFFFFFFFFFF
(1578925464.032700) can0 18F00F3D#9010FFFFFFFFFFFF
(1578925464.033800) can0 0CF00400#017D7D772600F47D
(1578925464.034400) can0 18FEDF00#840013FF7D2607FF
(1578925464.037650) can0 0C00000B#FCFFFAFAFFFFFFFF
(1578925464.038450) can0 18FFA13D#0B0BF51030000001
(1578925464.039050) can0 14FDA421#FFFFFFFFFFFFFFFF
(1578925464.039800) can0 10FF2121#72551FD4D0FFFFE1
(1578925464.043750) can0 0CF00400#017D7D7B2600F47D
(1578925464.047950) can0 18EA4A17#E6FE00
(1578925464.048550) can0 18FD0517#03033FFFFFFFFFFF
(1578925464.049150) can0 14FEF031#FFFFFFFFFFFC00FF
(1578925464.049700) can0 18FD0417#C0FFFFFFFFFFFFFF
(1578925464.050300) can0 18FEF717#FFFFFFFF1901FFFF
(1578925464.050850) can0 14FF2321#010CE1FFFFFFFFFF
(1578925464.051450) can0 18FEFA17#FFDDBDFFFFFFFFFF
(1578925464.052050) can0 18FF1817#400000000000FFFF
(1578925464.052600) can0 18FF1917#53FFFFFF020000E4
(1578925464.053150) can0 18FECA17#00FF00000000FFFF
(1578925464.053750) can0 18FEFC17#FF88FFFFFFFFFFFF
(1578925464.054300) can0 0CF00400#017D7D7B2600F47D
(1578925464.054850) can0 0CFF0281#45038001D2006100
(1578925464.055450) can0 18FEF000#FFFFFF0000F000FF
(1578925464.056050) can0 18FEF117#F3FFFFFFFFFFFFFF
(1578925464.056450) can0 18EA4A17#E8FE00
(1578925464.057000) can0 18FEC117#3EFD8905FFFFFFFF
(1578925464.057550) can0 0CF00A01#E80EB422FFFFFFFF
(1578925464.058150) can0 10F01A01#088FFFFFFFFFFFFF
(1578925464.060850) can0 14FF0121#FFFFFFFFFFFFFCFF
(1578925464.063750) can0 0CF00400#017D7D782600F47D
(1578925464.064350) can0 18FEE000#36B8380036B83800
(1578925464.068650) can0 18F0233D#FFFFFFFFFF2BFFFF
(1578925464.069650) can0 14FF0221#FFFFFFFFFFFFFFFF
(1578925464.073950) can0 0CF00400#017D7D722600F47D
(1578925464.074600) can0 0CF00300#DD0000FFFFFF61FF
(1578925464.075150) can0 18FEBF0B#B1457D7C716FFFFF
(1578925464.075700) can0 18FEF100#C378451000000030
(1578925464.080850) can0 10FF2121#72551FD0D0FFFFE1
(1578925464.082150) can0 18F00E3D#A00FFFFFFFFFFFFF
(1578925464.082750) can0 18F00F3D#9010FFFFFFFFFFFF
(1578925464.083300) can0 18FD8C3D#16000A00FFFFFFFF
(1578925464.083900) can0 18FDB23D#FFFFCC4F0F00FFFF
(1578925464.084450) can0 0CF00400#017D7D6E2600F47D
(1578925464.085000) can0 18FDB300#FFFF6753FFFFFFFF
(1578925464.085650) can0 18FE4F3E#0400FFFFFFFFFFFF
(1578925464.086200) can0 18FDB400#77407740FFFFFFFF
(1578925464.086750) can0 18FEDF00#840013FF7D2807FF
(1578925464.088700) can0 14F00031#CFFFFFFFFFFFFFFF
(1578925464.090750) can0 18F0010B#C0FFF0FFFF0DFF3F
(1578925464.092450) can0 14FF3131#0430030000FFFFF0
(1578925464.093350) can0 18FF2221#0355CF0733F3FFFF
(1578925464.093900) can0 0CF00400#017D7D632600F47D
(1578925464.095200) can0 18FF1919#01030A02FFFFFFFF
(1578925464.098550) can0 14F00131#FFFFFFFF00FFFFFF
(1578925464.100050) can0 18FF1B19#FFFCFFFFFFFFFFFF
(1578925464.100950) can0 10FF2121#72551FD0D0FFFFE1
(1578925464.103750) can0 0CF00400#017D7D4E2600F47D
(1578925464.104300) can0 0CFF0381#0000000000000007
(1578925464.104900) can0 18F0000F#007DFFFF0F7DFFFF
(1578925464.106850) can0 0CF00A01#E80EB422FFFFFFFF
(1578925464.107450) can0 10F01A01#088FFFFFFFFFFFFF
(1578925464.108050) can0 10FCFD01#FFFFFFFF8328FFFF
(1578925464.108600) can0 14FEF121#F3FFFF1FFFFFFFFF
(1578925464.109150) can0 18FD9401#C407FFFF8527E801
(1578925464.109750) can0 18FDA101#191BFFFFFFFF00FF
(1578925464.110350) can0 10FDA301#FFFFFFFFFFFFFFFF
(1578925464.110950) can0 18FDAA01#FFFFFFFFFFFFFF2A
(1578925464.111500) can0 18FDD001#FFFFFF002AFFFFFF
(1578925464.112100) can0 1CFE9201#FF0071FFFFFFFFFF
(1578925464.112650) can0 18FEDB01#092909290929FFFF
(1578925464.113800) can0 0CF00400#017D7D3F2600F47D
(1578925464.114400) can0 18FF3000#0000AFFFFFFFFFFF
(1578925464.118450) can0 18F0233D#FFFFFFFFFF2BFFFF
(1578925464.119000) can0 14FEF131#CFFFFFF300FFFF30
(1578925464.119550) can0 18FD413D#FFFFFFFFFCFCFCFC
(1578925464.123700) can0 0CF00400#017D7D2E2600F47D
(1578925464.124300) can0 0CF00300#DD0000FFFFFF61FF
(1578925464.124900) can0 14FFA000#FCFFFFFFFFFFFFFF
(1578925464.125500) can0 18FEF200#00000000F304FFFF
(1578925464.128500) can0 0CF00421#FFFFFFFFFFFFFFFF
(1578925464.132150) can0 18F00E3D#A00FFFFFFFFFFFFF
(1578925464.132700) can0 18F00F3D#9010FFFFFFFFFFFF
(1578925464.133850) can0 0CF00400#017D7D232600F47D
(1578925464.134450) can0 18FEDF00#840013FF7D2807FF
(1578925464.137750) can0 0C00000B#FCFFFAFAFFFFFFFF
(1578925464.138750) can0 14FDA421#FFFFFFFFFFFFFFFF
(1578925464.140800) can0 10FF2121#72551FD0D0FFFFE1
(1578925464.143750) can0 0CF00400#017D7D182600F47D
(1578925464.148150) can0 18FEF117#F3FFFFFFFFFFFFFF
(1578925464.148750) can0 14FEF031#FFFFFFFFFFFC00FF
(1578925464.150600) can0 14FF2321#010CE1FFFFFFFFFF
(1578925464.153700) can0 0CF00400#017D7D142600F47D
(1578925464.154250) can0 0CFF0281#45038001D2006100
(1578925464.154850) can0 18FEF000#FFFFFF0000F000FF
(1578925464.156850) can0 0CF00A01#E80E9F22FFFFFFFF
(1578925464.157400) can0 10F01A01#0C8FFFFFFFFFFFFF
(1578925464.158550) can0 18FEE64A#641809013423837E
(1578925464.159100) can0 0C00100B#FCFFFA00FFFFFFFF
(1578925464.160900) can0 14FF0121#FFFFFFFFFFFFFCFF
(1578925464.163800) can0 0CF00400#017D7D142600F47D
(1578925464.164350) can0 0C000F0B#FCFFFA00FFFFFFFF
(1578925464.164900) can0 18FEE000#36B8380036B83800
(1578925464.168500) can0 18E8174A#0100FFFFFFE8FE00
(1578925464.169100) can0 18F0233D#FFFFFFFFFF2BFFFF
(1578925464.169650) can0 0C00290B#FCFFFA00FFFFFFFF
(1578925464.170250) can0 14FF0221#FFFFFFFFFFFFFFFF
(1578925464.174000) can0 0CF00400#017D7D122600F47D
(1578925464.174600) can0 0CF00300#DD0000FFFFFF5FFF
(1578925464.175150) can0 18FEBF0B#54457E7B716FFFFF
(1578925464.175700) can0 18FEF100#C318451000000030
(1578925464.182150) can0 18F00E3D#A00FFFFFFFFFFFFF
(1578925464.182750) can0 18F00F3D#9010FFFFFFFFFFFF
(1578925464.183300) can0 18FD8C3D#16000A00FFFFFFFF
(1578925464.183850) can0 18FDB23D#FFFFCC4F0F00FFFF
(1578925464.184450) can0 0CF00400#017D7D182600F47D
(1578925464.185050) can0 18FDB300#FFFF6753FFFFFFFF
(1578925464.185600) can0 18FE4F3E#0400FFFFFFFFFFFF
(1578925464.186200) can0 18FDB400#77407740FFFFFFFF
(1578925464.186750) can0 18FEDF00#840013FF7D2307FF
(1578925464.187350) can0 18FEEF00#BFFFFF4FFFFFFFFA
(1578925464.188850) can0 14F00031#CFFFFFFFFFFFFFFF
(1578925464.190650) can0 14FF3131#0430030000FFFFF0
(1578925464.191200) can0 18F0010B#C0FFF0FFFF0DFF3F
(1578925464.191750) can0 10FF2121#72551FD0D0FFFFE1
(1578925464.193800) can0 0CF00400#017D7D182600F47D
(1578925464.198600) can0 14F00131#FFFFFFFF00FFFFFF
(1578925464.203650) can0 0CF00400#017D7D142600F47D
(1578925464.204300) can0 0CFF0381#0000000000000007
(1578925464.204850) can0 18F0000F#007DFFFF0F7DFFFF
(1578925464.206800) can0 0CF00A01#EF0E9022FFFFFFFF
(1578925464.207450) can0 10F01A01#1C8FFFFFFFFFFFFF
(1578925464.208000) can0 10FCFD01#FFFFFFFF7928FFFF
(1578925464.208550) can0 18FD9401#C407FFFF7427E901
(1578925464.209150) can0 14FEF121#F3FFFF1FFFFFFFFF
(1578925464.209700) can0 18FDA101#241BFFFFFFFF00FF
(1578925464.210300) can0 10FDA301#FFFFFFFFFFFFFFFF
(1578925464.210900) can0 18FDAA01#FFFFFFFFFFFFFF2A
(1578925464.211500) can0 18FDD001#FFFFFF002AFFFFFF
(1578925464.212050) can0 1CFE9201#FF0071FFFFFFFFFF
(1578925464.212600) can0 18FEDB01#092909290929FFFF
(1578925464.213800) can0 0CF00400#017D7D182600F47D
(1578925464.214400) can0 18FF3000#0000AFFFFFFFFFFF
(1578925464.218450) can0 18F0233D#FFFFFFFFFF2BFFFF
(1578925464.219000) can0 14FEF131#CFFFFFF300FFFF30
(1578925464.219550) can0 18FD413D#FFFFFFFFFCFCFCFC
(1578925464.222100) can0 18EA0090#E9FE00
(1578925464.223800) can0 0CF00400#017D7D1C2600F47D
(1578925464.224350) can0 0CF00300#DD0000FFFFFF5FFF
(1578925464.225000) can0 14FFA000#FCFFFFFFFFFFFFFF
(1578925464.225600) can0 18FEF200#00000000F304FFFF
(1578925464.226250) can0 18FEE900#7EC405007BC10500
(1578925464.228650) can0 0CF00421#FFFFFFFFFFFFFFFF
(1578925464.232150) can0 18F00E3D#A00FFFFFFFFFFFFF
(1578925464.232750) can0 18F00F3D#9010FFFFFFFFFFFF
(1578925464.233850) can0 0CF00400#017D7D1C2600F47D
(1578925464.234400) can0 18FEDF00#840013FF7D2307FF
(1578925464.237800) can0 0C00000B#FCFFFAFAFFFFFFFF
(1578925464.238900) can0 14FDA421#FFFFFFFFFFFFFFFF
(1578925464.240700) can0 10FF2121#72551FD0D0FFFFE1
(1578925464.243750) can0 0CF00400#017D7D172600F47D
(1578925464.248500) can0 18FEF117#F3FFFFFFFFFFFFFF
(1578925464.249100) can0 14FEF031#FFFFFFFFFFFC00FF
(1578925464.250600) can0 14FF2321#010CE1FFFFFFFFFF
(1578925464.253700) can0 0CF00400#017D7D092600F47D
(1578925464.254250) can0 0CFF0281#45038201D7006300
(1578925464.254800) can0 18FEF000#FFFFFF0000F000FF
(1578925464.256850) can0 0CF00A01#EF0E9F22FFFFFFFF
(1578925464.257400) can0 10F01A01#208FFFFFFFFFFFFF
(1578925464.260850) can0 14FF0121#FFFFFFFFFFFFFCFF
(1578925464.263750) can0 0CF00400#017D7DF82500F47D
(1578925464.264350) can0 14FD3E00#C34EFFE34BFFFFFF
(1578925464.264950) can0 18FEE000#36B8380036B83800
(1578925464.268650) can0 18F0233D#FFFFFFFFFF2BFFFF
(1578925464.269700) can0 14FF0221#FFFFFFFFFFFFFFFF
(1578925464.274000) can0 0CF00400#017D7DE42500F47D
(1578925464.274600) can0 0CF00300#DD0000FFFFFF5FFF
(1578925464.275150) can0 18FEBF0B#00457E7B716DFFFF
(1578925464.275700) can0 18FEF100#C372441000000030
(1578925464.282150) can0 18F00E3D#A00FFFFFFFFFFFFF
(1578925464.282700) can0 18F00F3D#9010FFFFFFFFFFFF
(1578925464.283300) can0 18FF01CA#F0FFFFFF044F061A
(1578925464.283850) can0 18FD8C3D#16000A00FFFFFFFF
(1578925464.284400) can0 0CF00400#017D7DD82500F47D
(1578925464.285000) can0 18FDB23D#FFFFCC4F0F00FFFF
(1578925464.285550) can0 18FEDF00#840013FF7D2607FF
(1578925464.286150) can0 18FDB300#FFFF6753FFFFFFFF
(1578925464.286700) can0 18FE4F3E#0400FFFFFFFFFFFF
(1578925464.287300) can0 18FDB400#77407740FFFFFFFF
(1578925464.288700) can0 14F00031#CFFFFFFFFFFFFFFF
(1578925464.290650) can0 14FF3131#0430030000FFFFF0
(1578925464.291250) can0 18F0010B#C0FFF0FFFF0DFF3F
(1578925464.291800) can0 10FF2121#72551FD0D0FFFFE1
(1578925464.293800) can0 0CF00400#017D7DCD2500F47D
(1578925464.298500) can0 14F00131#FFFFFFFF00FFFFFF
(1578925464.303700) can0 0CF00400#017D7DC32500F47D
(1578925464.304300) can0 0CFF0381#0000000000000007
(1578925464.304850) can0 18F0000F#007DFFFF0F7DFFFF
(1578925464.305450) can0 18FEF600#FF003E2AFF7640FF
(1578925464.306800) can0 0CF00A01#EF0E9822FFFFFFFF
(1578925464.307450) can0 10F01A01#248FFFFFFFFFFFFF
(1578925464.308000) can0 10FCFD01#FFFFFFFF7628FFFF
(1578925464.308550) can0 18FD9401#C407FFFF7027EA01
(1578925464.309150) can0 14FEF121#F3FFFF1FFFFFFFFF
(1578925464.309700) can0 18FDA101#241BFFFFFFFF00FF
(1578925464.310300) can0 10FDA301#FFFFFFFFFFFFFFFF
(1578925464.310900) can0 18FDAA01#FFFFFFFFFFFFFF2A
(1578925464.311500) can0 18FDD001#FFFFFF002AFFFFFF
(1578925464.312050) can0 1CFE9201#FF0071FFFFFFFFFF
(1578925464.312650) can0 18FEDB01#1C281C281C28FFFF
(1578925464.313800) can0 0CF00400#017D7DBB2500F47D
(1578925464.314400) can0 18FF3000#0000AFFFFFFFFFFF
(1578925464.318400) can0 18F0233D#FFFFFFFFFF2BFFFF
(1578925464.319000) can0 14FEF131#CFFFFFF300FFFF30
(1578925464.319600) can0 18FD413D#FFFFFFFFFCFCFCFC
(1578925464.323700) can0 0CF00400#017D7DB82500F47D
(1578925464.324300) can0 0CF00300#DD0000FFFFFF5FFF
(1578925464.324900) can0 14FFA000#FCFFFFFFFFFFFFFF
(1578925464.325500) can0 18FEF200#00000000F304FFFF
(1578925464.328600) can0 0CF00421#FFFFFFFFFFFFFFFF
(1578925464.332150) can0 18F00E3D#A00FFFFFFFFFFFFF
(1578925464.332750) can0 18F00F3D#9010FFFFFFFFFFFF
(1578925464.333850) can0 0CF00400#017D7DB72500F47D
(1578925464.334400) can0 18FEDF00#840013FF7D2607FF
(1578925464.337850) can0 0C00000B#FCFFFAFAFFFFFFFF
(1578925464.338850) can0 14FDA421#FFFFFFFFFFFFFFFF
(1578925464.340800) can0 10FF2121#72551FD0D0FFFFE1
(1578925464.343750) can0 0CF00400#017D7DAA2500F47D
(1578925464.348200) can0 18FEF117#F3FFFFFFFFFFFFFF
(1578925464.348750) can0 14FEF031#FFFFFFFFFFFC00FF
(1578925464.350650) can0 14FF2321#010CE1FFFFFFFFFF
(1578925464.353650) can0 0CF00400#017D7DA42500F47D
(1578925464.354250) can0 0CFF0281#45038001D2006100
(1578925464.354850) can0 18FEF000#FFFFFF0000F000FF
(1578925464.356850) can0 0CF00A01#EF0E8222FFFFFFFF
(1578925464.357400) can0 10F01A01#2C8FFFFFFFFFFFFF
(1578925464.359100) can0 0C00100B#FCFFFA00FFFFFFFF
(1578925464.360800) can0 14FF0121#FFFFFFFFFFFFFCFF
(1578925464.363750) can0 0CF00400#017D7DA62500F47D
(1578925464.364350) can0 18FEE000#36B8380036B83800
(1578925464.364950) can0 0C000F0B#FCFFFA00FFFFFFFF
(1578925464.368650) can0 18F0233D#FFFFFFFFFF2BFFFF
(1578925464.369700) can0 0C00290B#FCFFFA00FFFFFFFF
(1578925464.370900) can0 14FF0221#FFFFFFFFFFFFFFFF
(1578925464.374000) can0 0CF00400#017D7DA62500F47D
(1578925464.374550) can0 0CF00300#DD0000FFFFFF61FF
(1578925464.375100) can0 18FEBF0B#75447D7C6F6DFFFF
(1578925464.375700) can0 18FEF100#C346441000000030
(1578925464.382150) can0 18F00E3D#A00FFFFFFFFFFFFF
(1578925464.382750) can0 18F00F3D#9010FFFFFFFFFFFF
(1578925464.383350) can0 18FD8C3D#16000A00FFFFFFFF
(1578925464.383900) can0 18FDB23D#FFFFCC4F0F00FFFF
(1578925464.384450) can0 0CF00400#017D7DAA2500F47D
(1578925464.385050) can0 18FDB300#FFFF6753FFFFFFFF
(1578925464.385600) can0 18FEDF00#840013FF7D2107FF
(1578925464.386200) can0 18FDB400#77407740FFFFFFFF
(1578925464.386800) can0 18FE4F3E#0400FFFFFFFFFFFF
(1578925464.387350) can0 18FECA00#03FF00000000FFFF
(1578925464.388650) can0 14F00031#CFFFFFFFFFFFFFFF
(1578925464.389400) can0 18E00021#FFFFFFFFFFFFFFFF
(1578925464.390100) can0 14FF3131#0430030000FFFFF0
(1578925464.390950) can0 18F0010B#C0FFF0FFFF0DFF3F
(1578925464.391500) can0 10FF2121#72551FD0D0FFFFE1
(1578925464.393850) can0 0CF00400#017D7DAD2500F47D
(1578925464.398550) can0 14F00131#FFFFFFFF00FFFFFF
(1578925464.399250) can0 18FEFF47#FFFFFFFFFFFFFFFF
(1578925464.403700) can0 0CF00400#017D7DA42500F47D
(1578925464.404250) can0 0CFF0381#0000000000000007
(1578925464.404850) can0 18F0000F#007DFFFF0F7DFFFF
(1578925464.406850) can0 0CF00A01#EF0E5E22FFFFFFFF
(1578925464.407450) can0 10F01A01#388FFFFFFFFFFFFF
(1578925464.408000) can0 10FCFD01#FFFFFFFF6628FFFF
(1578925464.408600) can0 10FECA47#00FF00000000FFFF
(1578925464.409150) can0 18FD9401#C407FFFF5927EC01
(1578925464.409750) can0 14FEF121#F3FFFF1FFFFFFFFF
(1578925464.410300) can0 18FDA101#301BFFFFFFFF00FF
(1578925464.410900) can0 10FDA301#FFFFFFFFFFFFFFFF
(1578925464.411450) can0 18FDAA01#FFFFFFFFFFFFFF2A
(1578925464.412050) can0 18FDD001#FFFFFF002AFFFFFF
(1578925464.412650) can0 18FECA0B#00FF00000000FFFF
(1578925464.413250) can0 1CFE9201#FF0071FFFFFFFFFF
(1578925464.413800) can0 18FEDB01#1C281C281C28FFFF
(1578925464.414350) can0 0CF00400#017D7D972500F47D
(1578925464.414900) can0 18FD6501#C70DFFFFFFFFFFFF
(1578925464.415550) can0 18FF3000#0000AFFFFFFFFFFF
(1578925464.418450) can0 18F0233D#FFFFFFFFFF2BFFFF
(1578925464.419000) can0 10FECA31#00FF00000000FFFF
(1578925464.419600) can0 18FD413D#FFFFFFFFFCFCFCFC
(1578925464.420150) can0 14FEF131#CFFFFFF300FFFF30
(1578925464.423750) can0 0CF00400#017D7D862500F47D
(1578925464.424350) can0 0CF00300#DD0000FFFFFF61FF
(1578925464.424950) can0 14FFA000#FCFFFFFFFFFFFFFF
(1578925464.425550) can0 18FEF200#00000000F304FFFF
(1578925464.428550) can0 0CF00421#FFFFFFFFFFFFFFFF
(1578925464.429250) can0 10FECA21#00FF00000000FFFF
(1578925464.432150) can0 18F00E3D#A00FFFFFFFFFFFFF
(1578925464.432750) can0 18F00F3D#9010FFFFFFFFFFFF
(1578925464.433900) can0 0CF00400#017D7D782500F47D
(1578925464.434500) can0 18FEDF00#840013FF7D2107FF
(1578925464.437950) can0 0C00000B#FCFFFAFAFFFFFFFF
(1578925464.438850) can0 14FDA421#FFFFFFFFFFFFFFFF
(1578925464.439600) can0 1CFEC347#FFFFFFFFFFFFFFFF
(1578925464.440750) can0 10FF2121#72551FD0D0FFFFE1
(1578925464.443750) can0 0CF00400#017D7D692500F47D
(1578925464.448150) can0 18FEF117#F3FFFFFFFFFFFFFF
(1578925464.448750) can0 14FEF031#FFFFFFFFFFFC00FF
(1578925464.450650) can0 14FF2321#010CE1FFFFFFFFFF
(1578925464.453700) can0 0CF00400#017D7D602500F47D
(1578925464.454250) can0 0CFF0281#45038101D2006100
(1578925464.454850) can0 18FEF000#FFFFFF0000F000FF
(1578925464.456850) can0 0CF00A01#EF0E4822FFFFFFFF
(1578925464.457450) can0 10F01A01#3C8FFFFFFFFFFFFF
(1578925464.458700) can0 18FF2421#8CF0FFFFFFFFFFFF
(1578925464.460800) can0 10FF2121#72551FD4D0FFFFE1
(1578925464.461500) can0 14FF0121#FFFFFFFFFFFFFCFF
(1578925464.463800) can0 0CF00400#017D7D602500F47D
(1578925464.464400) can0 18FEE000#36B8380036B83800
(1578925464.468550) can0 10FECA25#00FF00000000FFFF
(1578925464.469150) can0 18F0233D#FFFFFFFFFF2BFFFF
(1578925464.470650) can0 14FF0221#FFFFFFFFFFFFFFFF
(1578925464.474050) can0 0CF00400#017D7D642500F47D
(1578925464.474600) can0 0CF00300#DD0000FFFFFF61FF
(1578925464.475150) can0 18FEBF0B#FA437D7C706DFFFF
(1578925464.475750) can0 18FEF100#C3C6431000000030
(1578925464.478650) can0 18FEF521#FFFFFF8022FFFFFF
(1578925464.482150) can0 18F00E3D#A00FFFFFFFFFFFFF
(1578925464.482750) can0 18F00F3D#9010FFFFFFFFFFFF
(1578925464.483300) can0 18FD8C3D#16000A00FFFFFFFF
(1578925464.483900) can0 18FDB23D#FFFFCC4F0F00FFFF
(1578925464.484450) can0 0CF00400#017D7D632500F47D
(1578925464.485000) can0 18FDB300#FFFF6753FFFFFFFF
(1578925464.485600) can0 18FEDF00#840013FF7D1807FF
(1578925464.486200) can0 18FDB400#77407740FFFFFFFF
(1578925464.486750) can0 18FE4F3E#0400FFFFFFFFFFFF
(1578925464.488700) can0 14F00031#CFFFFFFFFFFFFFFF
(1578925464.490550) can0 10FF2121#72551FD4D0FFFFE1
(1578925464.491150) can0 18F0010B#C0FFF0FFFF0DFF3F
(1578925464.491750) can0 14FF3131#0430030000FFFFF0
(1578925464.493800) can0 0CF00400#017D7D5B2500F47D
(1578925464.498550) can0 14F00131#FFFFFFFF00FFFFFF
(1578925464.503700) can0 0CF00400#017D7D522500F47D
(1578925464.504300) can0 0CFF0381#0000000000000007
(1578925464.504900) can0 18F0000F#007DFFFF0F7DFFFF
(1578925464.506850) can0 0CF00A01#EF0E3A22FFFFFFFF
(1578925464.507400) can0 10F01A01#408FFFFFFFFFFFFF
(1578925464.508000) can0 10FCFD01#FFFFFFFF5C28FFFF
(1578925464.508600) can0 14FEF121#F3FFFF1FFFFFFFFF
(1578925464.509150) can0 18FD9401#C407FFFF4E27ED01
(1578925464.509750) can0 18FDA101#301BFFFFFFFF00FF
(1578925464.510300) can0 10FDA301#FFFFFFFFFFFFFFFF
(1578925464.510900) can0 18FDAA01#FFFFFFFFFFFFFF2A
(1578925464.511500) can0 18FDD001#FFFFFF002AFFFFFF
(1578925464.512100) can0 1CFE9201#FF0071FFFFFFFFFF
(1578925464.512650) can0 18FEDB01#1C281C281C28FFFF
(1578925464.513800) can0 0CF00400#017D7D4A2500F47D
(1578925464.514400) can0 18FF3000#0000AFFFFFFFFFFF
(1578925464.518450) can0 18F0233D#FFFFFFFFFF2BFFFF
(1578925464.519000) can0 14FEF131#CFFFFFF300FFFF30
(1578925464.519550) can0 18FD413D#FFFFFFFFFCFCFCFC
(1578925464.523700) can0 0CF00400#017D7D432500F47D
(1578925464.524300) can0 0CF00300#DD0000FFFFFF61FF
(1578925464.524900) can0 14FFA000#FCFFFFFFFFFFFFFF
(1578925464.525500) can0 18FEF200#00000000F304FFFF
(1578925464.528550) can0 0CF00421#FFFFFFFFFFFFFFFF
(1578925464.532150) can0 18F00E3D#A00FFFFFFFFFFFFF
(1578925464.532750) can0 18F00F3D#9010FFFFFFFFFFFF
(1578925464.533850) can0 0CF00400#017D7D442500F47D
(1578925464.534450) can0 18FEDF00#840013FF7D1807FF
(1578925464.538000) can0 0C00000B#FCFFFAFAFFFFFFFF
(1578925464.538550) can0 14FDA421#FFFFFFFFFFFFFFFF
(1578925464.540750) can0 10FF2121#72551FD4D0FFFFE1
(1578925464.543750) can0 0CF00400#017D7D442500F47D
(1578925464.548500) can0 18FEF117#F3FFFFFFFFFFFFFF
(1578925464.549100) can0 14FEF031#FFFFFFFFFFFC00FF
(1578925464.550600) can0 14FF2321#010CE1FFFFFFFFFF
(1578925464.553700) can0 0CF00400#017D7D3F2500F47D
(1578925464.554300) can0 18FEF000#FFFFFF0000F000FF
(1578925464.554850) can0 0CFF0281#45038601D2006100
(1578925464.557050) can0 0CF00A01#F60E2422FFFFFFFF
(1578925464.557600) can0 10F01A01#4C8FFFFFFFFFFFFF
(1578925464.558750) can0 18FEF621#FFFFFFFFFFFFFFFF
(1578925464.559350) can0 0C00100B#FCFFFA00FFFFFFFF
(1578925464.560900) can0 14FF0121#FFFFFFFFFFFFFCFF
(1578925464.563800) can0 0CF00400#017D7D3C2500F47D
(1578925464.564400) can0 18FEE000#36B8380036B83800
(1578925464.564950) can0 0C000F0B#FCFFFA00FFFFFFFF
(1578925464.568650) can0 18F0233D#FFFFFFFFFF2BFFFF
(1578925464.569250) can0 18FEF721#FFFFFFFF1A01FFFF
(1578925464.569850) can0 0C00290B#FCFFFA00FFFFFFFF
(1578925464.570900) can0 14FF0221#FFFFFFFFFFFFFFFF
(1578925464.574050) can0 0CF00400#017D7D372500F47D
(1578925464.574650) can0 0CF00300#DD0000FFFFFF61FF
(1578925464.575200) can0 18FEBF0B#88437D7D736FFFFF
(1578925464.575750) can0 18FEF100#C338431000000030
(1578925464.578650) can0 18E00031#FFFFFFFFFFF3FFFF
(1578925464.582150) can0 18F00E3D#A00FFFFFFFFFFFFF
(1578925464.582750) can0 18F00F3D#9010FFFFFFFFFFFF
(1578925464.583300) can0 18FD8C3D#16000A00FFFFFFFF
(1578925464.583900) can0 18FDB23D#FFFFCC4F0F00FFFF
(1578925464.584450) can0 0CF00400#017D7D2D2500F47D
(1578925464.585000) can0 18FDB300#FFFF6753FFFFFFFF
(1578925464.585600) can0 18FEDF00#840013FF7D1C07FF
(1578925464.586200) can0 18FDB400#77407740FFFFFFFF
(1578925464.586750) can0 18FE4F3E#0400FFFFFFFFFFFF
(1578925464.588900) can0 14F00031#CFFFFFFFFFFFFFFF
(1578925464.590650) can0 14FF3131#0430030000FFFFF0
(1578925464.591200) can0 18F0010B#C0FFF0FFFF0DFF3F
(1578925464.591750) can0 10FF2121#72551FD4D0FFFFE1
(1578925464.593800) can0 0CF00400#017D7D1C2500F47D
(1578925464.595100) can0 18FF1919#01030A02FFFFFFFF
(1578925464.598550) can0 14F00131#FFFFFFFF00FFFFFF
(1578925464.600050) can0 18FF1B19#FFFCFFFFFFFFFFFF
(1578925464.603700) can0 0CFF0381#0000000000000007
(1578925464.604250) can0 0CF00400#017D7D112500F47D
(1578925464.604850) can0 18F0000F#007DFFFF0F7DFFFF
(1578925464.605450) can0 18E00019#00FFFFFFFFFFFFFF
(1578925464.606850) can0 0CF00A01#F60E1D22FFFFFFFF
(1578925464.607450) can0 10F01A01#508FFFFFFFFFFFFF
(1578925464.608050) can0 10FCFD01#FFFFFFFF5928FFFF
(1578925464.608600) can0 14FEF121#F3FFFF1FFFFFFFFF
(1578925464.609150) can0 18FD9401#C407FFFF3C27EE01
(1578925464.609750) can0 18FDA101#3C1BFFFFFFFF00FF
(1578925464.610300) can0 10FDA301#FFFFFFFFFFFFFFFF
(1578925464.610900) can0 18FEF719#FFFFFFFFFFFF1A01
(1578925464.611500) can0 18FDAA01#FFFFFFFFFFFFFF2A
(1578925464.612050) can0 18FDD001#FFFFFF002AFFFFFF
(1578925464.612650) can0 1CFE9201#FF0071FFFFFFFFFF
(1578925464.613250) can0 18FEDB01#1C281C281C28FFFF
(1578925464.613850) can0 0CF00400#017D7D092500F47D
(1578925464.614450) can0 18FF3000#0000AFFFFFFFFFFF
(1578925464.618450) can0 18F0233D#FFFFFFFFFF2BFFFF
(1578925464.619000) can0 14FEF131#CFFFFFF300FFFF30
(1578925464.619550) can0 18FD413D#FFFFFFFFFCFCFCFC
(1578925464.623750) can0 0CF00400#017D7D002500F47D
(1578925464.624350) can0 0CF00300#DD0000FFFFFF61FF
(1578925464.624950) can0 14FFA000#FCFFFFFFFFFFFFFF
(1578925464.625550) can0 18FEF200#00000000F304FFFF
(1578925464.628550) can0 0CF00421#FFFFFFFFFFFFFFFF
